! Amplifier S Parameters Including Noise 
# mhz s ma r 50

0       0.07    145.3   14.26   174.8   0.06    1.53    0.06    171.13
100     0.07    145.3   14.26   174.8   0.06    1.53    0.06    171.13
200     0.09    132.48  14.17   169.61  0.06    1.1     0.06    165.46
300     0.09    118.13  13.96   164.42  0.06    0.58    0.07    170.09
400     0.12    107.43  13.8    159.32  0.06    1.31    0.06    176.26
500     0.13    94.42   13.54   154.55  0.06    1.65    0.06    174.51
600     0.15    91.61   13.27   149.95  0.06    5.46    0.06    171.6
700     0.17    83.78   12.93   145.75  0.06    4.06    0.06    170.08
800     0.18    77.25   12.62   141.41  0.06    6.35    0.06    172.2
900     0.19    71.54   12.25   137.08  0.06    6.23    0.06    166.79
1000    0.2     67.27   11.93   133.2   0.06    8.81    0.06    168.13
1200    0.22    58.49   11.28   125.52  0.06    9.17    0.07    163.99
1400    0.23    51.26   10.64   118.49  0.06    10.63   0.07    161.2
1600    0.24    45.85   10.07   111.95  0.06    12.74   0.08    157.31
1800    0.25    39.86   9.48    105.87  0.07    12.36   0.08    153.94
2000    0.24    33.13   8.97    100.2   0.07    12.72   0.09    152.27
2200    0.24    27.96   8.46    94.25   0.07    14.7    0.1     148.75
2400    0.24    22.19   8.07    89.19   0.07    15.1    0.1     145.42
2600    0.23    17.51   7.63    84.2    0.07    15.33   0.11    140.86
2800    0.22    12.58   7.25    79.21   0.07    16.16   0.12    137.73
3000    0.21    8.3     6.94    74.22   0.07    15.77   0.13    134.48
3200    0.2     4.36    6.65    69.45   0.08    15.59   0.14    131.21
3400    0.19    1.07    6.33    65.29   0.08    16.93   0.16    128.88
3600    0.18    -2.43   6.07    60.81   0.08    17      0.17    127.31
3800    0.17    -4.81   5.81    56.29   0.08    16.12   0.19    124.8
4000    0.15    -8.03   5.57    51.87   0.09    15.7    0.21    123.24
4500    0.13    -7.58   5.01    42.29   0.09    13.92   0.25    118.09
5000    0.13    -3.74   4.52    34.11   0.09    13.15   0.28    114.68
5500    0.14    -5.57   4.16    26.62   0.09    10.69   0.29    116.68
6000    0.15    -19.97  4.06    20.87   0.09    12.92   0.29    117.29
6500    0.14    -46.4   4.12    12.42   0.1     13.33   0.29    122.65
7000    0.15    -89.48  4.21    1.03    0.11    14.45   0.32    127.1
7500    0.15    -129.59 4.18    -11.87  0.12    10.53   0.36    121.76
8000    0.2     -157.54 4.19    -25.06  0.13    5.74    0.4     110.66
!
!  f       Fmin      Gammaopt      rn/50
! MHz       dB       MAG      ANG    -
  10        3.00     0.0       0    1.0
  1000      3.10     0.0       0    1.0
  2000      3.80     0.0       0    1.0
  3000      3.80     0.0       0    1.0
  4000      4.10     0.0       0    1.0
  5000      4.90     0.0       0    1.0
  6000      5.70     0.0       0    1.0
  7000      6.90     0.0       0    1.0
  8000      8.10     0.0       0    1.0
!
