! Created Sun Jun 24 21:08:22 2012
# hz S ma R 100
! 2 Port Network Data from SP1.SP block
! freq  magS11  angS11  magS21  angS21  magS12  angS12  magS22  angS22  
!     
  0.000000000e+007  0  0  1  0  1  0  0  0
  2.000000000e+007  9.028553553e-002  -7.569334376e+000   9.194845113e-001  -5.293572723e+001   9.193059614e-001  -5.293108455e+001   6.890060044e-002   3.671082942e+001
  4.000000000e+007  8.256861076e-002  -2.034477686e+001   8.888484508e-001  -1.035432782e+002   8.887179567e-001  -1.035346154e+002   1.035372743e-001  -4.135935390e+001
  6.000000000e+007  7.954175487e-002  -3.163613708e+001   8.656727361e-001  -1.536283295e+002   8.656086089e-001  -1.536170897e+002   1.076634563e-001  -9.571989935e+001
  8.000000000e+007  5.422530152e-002  -4.400621790e+001   8.468228017e-001   1.565023209e+002   8.468322091e-001   1.565141228e+002   6.305501470e-002  -1.312951657e+002
  1.000000000e+008  5.033879451e-002   1.836073650e+000   8.287397010e-001   1.066555914e+002   8.288156772e-001   1.066658851e+002   4.060253302e-002  -7.054681154e+001
  1.200000000e+008  1.087342352e-001  -1.058688039e+001   8.090542799e-001   5.704976281e+001   8.091773237e-001   5.705710924e+001   1.029850246e-001  -7.989120315e+001
  1.400000000e+008  1.238949672e-001  -4.611690681e+001   7.924867862e-001   7.791011424e+000   7.926389937e-001   7.794374449e+000   1.156602780e-001  -1.087766473e+002
  1.600000000e+008  7.020063807e-002  -7.111757861e+001   7.802587193e-001  -4.157891114e+001   7.804173063e-001  -4.158043474e+001   7.341932005e-002  -1.141952121e+002
  1.800000000e+008  7.036141313e-002  -1.197401306e+001   7.646689649e-001  -9.115079604e+001   7.647989550e-001  -9.115712058e+001   9.997165634e-002  -7.783604809e+001
  2.000000000e+008  1.560416742e-001  -3.531710970e+001   7.454643683e-001  -1.402430416e+002   7.455441482e-001  -1.402526729e+002   1.686446866e-001  -9.437238530e+001
  2.200000000e+008  1.716379454e-001  -7.490825653e+001   7.336053661e-001   1.711307618e+002   7.336312282e-001   1.711195417e+002   1.679350099e-001  -1.209257726e+002
  2.400000000e+008  9.621923799e-002  -1.066885898e+002   7.285678125e-001   1.219545323e+002   7.285360759e-001   1.219431479e+002   9.508677494e-002  -1.266189953e+002
  2.600000000e+008  7.075233797e-002  -4.322817482e+001   7.151097310e-001   7.223173490e+001   7.150203864e-001   7.222206229e+001   1.224737189e-001  -8.038410441e+001
  2.800000000e+008  1.690674809e-001  -6.479564337e+001   6.939060845e-001   2.332549045e+001   6.937771906e-001   2.331961695e+001   2.151513747e-001  -9.512804086e+001
  3.000000000e+008  1.828213278e-001  -1.071266728e+002   6.832037139e-001  -2.477695657e+001   6.830630564e-001  -2.477796030e+001   2.240534135e-001  -1.197878647e+002
  3.200000000e+008  9.292224793e-002  -1.505686742e+002   6.831790214e-001  -7.366461742e+001   6.830485008e-001  -7.366133816e+001   1.509906903e-001  -1.294767220e+002
  3.400000000e+008  5.254081305e-002  -3.830357459e+001   6.738884687e-001  -1.234635079e+002   6.737801171e-001  -1.234565675e+002   1.440311913e-001  -9.871072869e+001
  3.600000000e+008  1.517833793e-001  -7.915152057e+001   6.544065223e-001  -1.724805627e+002   6.543390314e-001  -1.724702590e+002   2.241338727e-001  -1.016525164e+002
  3.800000000e+008  1.446626440e-001  -1.279875433e+002   6.435762366e-001   1.393184089e+002   6.435655924e-001   1.393302495e+002   2.377644075e-001  -1.175582519e+002
  4.000000000e+008  3.631782185e-002   1.615013726e+002   6.402863286e-001   9.041658626e+001   6.403301661e-001   9.042710796e+001   1.984693716e-001  -1.202654136e+002
  4.200000000e+008  1.138478659e-001  -2.974021020e+001   6.284586115e-001   4.102539265e+001   6.285375444e-001   4.103337573e+001   2.137366912e-001  -1.106438674e+002
  4.400000000e+008  1.879075800e-001  -8.005632584e+001   6.133305482e-001  -7.512919892e+000   6.134350353e-001  -7.508084813e+000   2.505946551e-001  -1.169736483e+002
  4.600000000e+008  1.397753197e-001  -1.213674456e+002   6.080211594e-001  -5.592735490e+001   6.081410413e-001  -5.592706325e+001   2.259709240e-001  -1.245008789e+002
  4.800000000e+008  4.778204618e-002  -6.648100403e+001   6.010203966e-001  -1.053801278e+002   6.011277528e-001  -1.053850926e+002   2.081454485e-001  -1.125624792e+002
  5.000000000e+008  1.933082665e-001  -6.385603406e+001   5.805395236e-001  -1.543997825e+002   5.806075545e-001  -1.544083568e+002   2.802067738e-001  -1.097978091e+002
  5.200000000e+008  2.619553947e-001  -1.017743871e+002   5.658074292e-001   1.581971903e+002   5.658359630e-001   1.581872645e+002   3.148850424e-001  -1.246882116e+002
  5.400000000e+008  2.001347494e-001  -1.356205823e+002   5.693406238e-001   1.103493052e+002   5.693315768e-001   1.103386265e+002   2.519505664e-001  -1.362949348e+002
  5.600000000e+008  9.409934784e-002  -1.151507631e+002   5.685648440e-001   6.049478116e+001   5.685106152e-001   6.048477080e+001   1.996839781e-001  -1.170015497e+002
  5.800000000e+008  2.080655282e-001  -9.935088507e+001   5.467248445e-001   1.115693158e+001   5.466335335e-001   1.115044348e+001   2.969757182e-001  -1.089016902e+002
  6.000000000e+008  2.702695831e-001  -1.323412712e+002   5.301526610e-001  -3.591375273e+001   5.300541903e-001  -3.591565046e+001   3.523630216e-001  -1.241615457e+002
  6.200000000e+008  2.000716248e-001  -1.681596084e+002   5.352091246e-001  -8.323920258e+001   5.351151885e-001  -8.323757901e+001   3.016090915e-001  -1.373898539e+002
  6.400000000e+008  5.697805615e-002  -1.547454997e+002   5.400040333e-001  -1.328296741e+002   5.399155743e-001  -1.328247066e+002   2.344850164e-001  -1.280619578e+002
  6.600000000e+008  1.582008335e-001  -1.137053917e+002   5.255113099e-001   1.775555249e+002   5.254479190e-001   1.775642976e+002   2.906315441e-001  -1.170821195e+002
  6.800000000e+008  1.993512880e-001  -1.506194360e+002   5.118124616e-001   1.296728150e+002   5.117925556e-001   1.296836793e+002   3.367779909e-001  -1.254841421e+002
  7.000000000e+008  1.044123959e-001   1.677338374e+002   5.108121743e-001   8.160280161e+001   5.108343025e-001   8.161285822e+001   3.127804215e-001  -1.320269641e+002
  7.200000000e+008  6.820730342e-002  -6.230601614e+001   5.062782901e-001   3.237411794e+001   5.063269661e-001   3.238206888e+001   2.996996637e-001  -1.280338189e+002
  7.400000000e+008  1.960088256e-001  -1.026377653e+002   4.936792096e-001  -1.623087572e+001   4.937477826e-001  -1.622534407e+001   3.292414057e-001  -1.289765815e+002
  7.600000000e+008  1.957281139e-001  -1.387058614e+002   4.886214142e-001  -6.417875772e+001   4.887081019e-001  -6.417702597e+001   3.173653300e-001  -1.350492465e+002
  7.800000000e+008  9.482284751e-002  -1.369004348e+002   4.867772386e-001  -1.133444007e+002   4.868601707e-001  -1.133479167e+002   2.816240942e-001  -1.300496613e+002
  8.000000000e+008  1.863636748e-001  -9.861677812e+001   4.705151246e-001  -1.627111820e+002   4.705689843e-001  -1.627181360e+002   3.310538178e-001  -1.227556753e+002
  8.200000000e+008  2.946615685e-001  -1.250112915e+002   4.526984653e-001   1.500792398e+002   4.527253112e-001   1.500710442e+002   3.853549771e-001  -1.316215383e+002
  8.400000000e+008  2.796210118e-001  -1.539971082e+002   4.537302876e-001   1.034110455e+002   4.537354611e-001   1.034016358e+002   3.486947833e-001  -1.433612128e+002
  8.600000000e+008  1.763548422e-001  -1.606117928e+002   4.611297704e-001   5.433326156e+001   4.611004400e-001   5.432370609e+001   2.653638375e-001  -1.378882670e+002
  8.800000000e+008  2.142505092e-001  -1.382262586e+002   4.486226824e-001   4.404289103e+000   4.485630728e-001   4.397477752e+000   3.141407432e-001  -1.220032793e+002
  9.000000000e+008  2.995268837e-001  -1.571290843e+002   4.300186766e-001  -4.298386148e+001   4.299518029e-001  -4.298695032e+001   3.940520488e-001  -1.296297272e+002
  9.200000000e+008  2.703422777e-001   1.743516966e+002   4.299609270e-001  -8.932774670e+001   4.298928510e-001  -8.932784575e+001   3.792198377e-001  -1.421081215e+002
  9.400000000e+008  1.425290054e-001   1.610526944e+002   4.400138950e-001  -1.378231024e+002   4.399456318e-001  -1.378202363e+002   3.036326906e-001  -1.429632234e+002
  9.600000000e+008  1.379013424e-001  -1.569724156e+002   4.364913617e-001   1.722924426e+002   4.364350576e-001   1.722989408e+002   3.062738685e-001  -1.307310559e+002
  9.800000000e+008  2.041616544e-001  -1.739178498e+002   4.247589360e-001   1.237871779e+002   4.247320492e-001   1.237961240e+002   3.585829809e-001  -1.320079029e+002
  1.000000000e+009  1.479830956e-001   1.558195184e+002   4.211166905e-001   7.594211253e+001   4.211199970e-001   7.595085976e+001   3.581677838e-001  -1.379582212e+002
  1.020000000e+009  3.757545754e-002  -1.457985046e+002   4.194071762e-001   2.716451501e+001   4.194309263e-001   2.717164787e+001   3.396433398e-001  -1.376599552e+002
  1.040000000e+009  1.675768619e-001  -1.269339288e+002   4.115221386e-001  -2.154844141e+001   4.115620823e-001  -2.154286759e+001   3.524989654e-001  -1.372699645e+002
  1.060000000e+009  2.123340887e-001  -1.555917397e+002   4.065562566e-001  -6.955565710e+001   4.066125858e-001  -6.955311270e+001   3.455633017e-001  -1.414817567e+002
  1.080000000e+009  1.525547622e-001  -1.651492329e+002   4.056508236e-001  -1.184019376e+002   4.057073700e-001  -1.184037374e+002   3.075723448e-001  -1.391250193e+002
  1.100000000e+009  1.816736478e-001  -1.379840327e+002   3.950141329e-001  -1.678565904e+002   3.950536243e-001  -1.678613986e+002   3.321087252e-001  -1.305044946e+002
  1.120000000e+009  2.913381918e-001  -1.508848938e+002   3.788205914e-001   1.444953333e+002   3.788443970e-001   1.444890181e+002   3.901750632e-001  -1.349728781e+002
  1.140000000e+009  3.137847515e-001  -1.746040977e+002   3.752859902e-001   9.811600270e+001   3.752936993e-001   9.810828847e+001   3.775952006e-001  -1.455762825e+002
  1.160000000e+009  2.467303909e-001   1.719464396e+002   3.822506574e-001   5.004486770e+001   3.822366556e-001   5.003665422e+001   2.982337021e-001  -1.465495496e+002
  1.180000000e+009  2.307667391e-001  -1.781521440e+002   3.787239238e-001   2.723596313e-001   3.786876207e-001   2.655817489e-001   2.960714636e-001  -1.304134994e+002
  1.200000000e+009  2.981842006e-001   1.739328085e+002   3.643948274e-001  -4.792556175e+001   3.643477931e-001  -4.792969993e+001   3.750865188e-001  -1.308087652e+002
  1.220000000e+009  2.963138681e-001   1.516946876e+002   3.596194578e-001  -9.437887467e+001   3.595690247e-001  -9.438055497e+001   3.897511524e-001  -1.413421698e+002
  1.240000000e+009  2.038933258e-001   1.348191287e+002   3.669213090e-001  -1.419465614e+002   3.668680862e-001  -1.419456675e+002   3.313785880e-001  -1.464065990e+002
  1.260000000e+009  1.406360864e-001   1.529305376e+002   3.700844438e-001   1.685949426e+002   3.700340767e-001   1.685988952e+002   2.978766215e-001  -1.375279867e+002
  1.280000000e+009  1.828851858e-001   1.549969083e+002   3.635520800e-001   1.194334091e+002   3.635195285e-001   1.194400388e+002   3.346439114e-001  -1.328566794e+002
  1.300000000e+009  1.550537367e-001   1.334421141e+002   3.582133637e-001   7.121390683e+001   3.582018626e-001   7.122075065e+001   3.528521734e-001  -1.363260489e+002
  1.320000000e+009  5.519860383e-002   1.473363845e+002   3.559132946e-001   2.273340714e+001   3.559168287e-001   2.273949758e+001   3.438484929e-001  -1.377684762e+002
  1.340000000e+009  1.294644947e-001  -1.560160223e+002   3.513802743e-001  -2.594265439e+001   3.513967847e-001  -2.593728326e+001   3.449412058e-001  -1.377589158e+002
  1.360000000e+009  1.936863569e-001  -1.762975398e+002   3.473312805e-001  -7.426980249e+001   3.473601219e-001  -7.426644879e+001   3.358694431e-001  -1.400488059e+002
  1.380000000e+009  1.722255146e-001   1.729886152e+002   3.453062035e-001  -1.230762879e+002   3.453396893e-001  -1.230756855e+002   3.045561486e-001  -1.375924049e+002
  1.400000000e+009  1.863351018e-001  -1.725860506e+002   3.375011288e-001  -1.723956865e+002   3.375278743e-001  -1.723978834e+002   3.189150031e-001  -1.290971415e+002
  1.420000000e+009  2.747829094e-001  -1.793648278e+002   3.246588378e-001   1.395783413e+002   3.246764738e-001   1.395743910e+002   3.717163711e-001  -1.308098324e+002
  1.440000000e+009  3.111890481e-001   1.609159459e+002   3.191962921e-001   9.289575691e+001   3.192038857e-001   9.289028924e+001   3.724841969e-001  -1.395163061e+002
  1.460000000e+009  2.741009079e-001   1.464029953e+002   3.227982360e-001   4.522366398e+001   3.227937432e-001   4.521737019e+001   3.093299004e-001  -1.419742107e+002
  1.480000000e+009  2.494237761e-001   1.471805613e+002   3.218738286e-001  -4.132768037e+000   3.218534824e-001  -4.138837662e+000   2.879470656e-001  -1.284638752e+002
  1.500000000e+009  2.896723056e-001   1.416279927e+002   3.117557308e-001  -5.270322672e+001   3.117240834e-001  -5.270771427e+001   3.546391507e-001  -1.243341849e+002
  1.520000000e+009  2.944767989e-001   1.232348546e+002   3.057666185e-001  -9.956208209e+001   3.057300216e-001  -9.956457821e+001   3.855790145e-001  -1.321582279e+002
  1.540000000e+009  2.272738769e-001   1.060264131e+002   3.095268352e-001  -1.468460009e+002   3.094856573e-001  -1.468466196e+002   3.483606452e-001  -1.378319231e+002
  1.560000000e+009  1.553148341e-001   1.094361690e+002   3.134125842e-001   1.641206110e+002   3.133715222e-001   1.641227115e+002   3.081100025e-001  -1.323060197e+002
  1.580000000e+009  1.620592568e-001   1.154405399e+002   3.098417692e-001   1.147491774e+002   3.098096354e-001   1.147534905e+002   3.302817657e-001  -1.251320678e+002
  1.600000000e+009  1.420696244e-001   9.887246729e+001   3.043591099e-001   6.619896995e+001   3.043391278e-001   6.620439829e+001   3.608744792e-001  -1.258567270e+002
  1.620000000e+009  5.592658293e-002   9.739498664e+001   3.010513624e-001   1.782382554e+001   3.010426730e-001   1.782930909e+001   3.671184851e-001  -1.279062525e+002
  1.640000000e+009  8.956507120e-002   1.753187785e+002   2.978139785e-001  -3.073398617e+001   2.978149132e-001  -3.072884585e+001   3.658148709e-001  -1.288574364e+002
  1.660000000e+009  1.557301285e-001   1.596686274e+002   2.947380504e-001  -7.928052817e+001   2.947489065e-001  -7.927666656e+001   3.555461843e-001  -1.295289405e+002
  1.680000000e+009  1.543331222e-001   1.492343487e+002   2.918530741e-001  -1.282383838e+002   2.918690328e-001  -1.282363940e+002   3.378300340e-001  -1.264035576e+002
  1.700000000e+009  1.722146075e-001   1.590211193e+002   2.846113250e-001  -1.774794045e+002   2.846273963e-001  -1.774795447e+002   3.566888645e-001  -1.203227024e+002
  1.720000000e+009  2.488127319e-001   1.525051691e+002   2.739137222e-001   1.344034713e+002   2.739253738e-001   1.344015339e+002   4.032298590e-001  -1.212242534e+002
  1.740000000e+009  2.895983717e-001   1.334479969e+002   2.683069435e-001   8.749568199e+001   2.683134815e-001   8.749228640e+001   4.113660082e-001  -1.272269069e+002
  1.760000000e+009  2.679921134e-001   1.176020918e+002   2.696001178e-001   3.987324962e+001   2.695992412e-001   3.986863082e+001   3.690596336e-001  -1.291393168e+002
  1.780000000e+009  2.443820848e-001   1.141883073e+002   2.684836437e-001  -9.287448859e+000   2.684723863e-001  -9.292370510e+000   3.509623561e-001  -1.208507259e+002
  1.800000000e+009  2.736361341e-001   1.083341535e+002   2.600909874e-001  -5.799904273e+001   2.600715515e-001  -5.800313727e+001   4.041935927e-001  -1.164759939e+002
  1.820000000e+009  2.845832086e-001   9.047256439e+001   2.533577642e-001  -1.050436381e+002   2.533322699e-001  -1.050465289e+002   4.436795170e-001  -1.211323898e+002
  1.840000000e+009  2.342677175e-001   7.102301182e+001   2.543448156e-001  -1.520517650e+002   2.543153599e-001  -1.520529599e+002   4.283972114e-001  -1.259010861e+002
  1.860000000e+009  1.609416846e-001   6.516933286e+001   2.575979989e-001   1.593424667e+002   2.575679210e-001   1.593432943e+002   3.958099770e-001  -1.240895653e+002
  1.880000000e+009  1.464235315e-001   7.034697596e+001   2.554495251e-001   1.099080444e+002   2.554229426e-001   1.099104596e+002   4.064742911e-001  -1.187360435e+002
  1.900000000e+009  1.364342744e-001   5.402273182e+001   2.496164601e-001   6.116635170e+001   2.495957444e-001   6.117001669e+001   4.425697635e-001  -1.179910974e+002
  1.920000000e+009  6.694584013e-002   2.646527915e+001   2.451290012e-001   1.306278236e+001   2.451153032e-001   1.306712465e+001   4.626958146e-001  -1.201884839e+002
  1.940000000e+009  3.456309340e-002   1.625019800e+002   2.425725661e-001  -3.509026156e+001   2.425654065e-001  -3.508599313e+001   4.642950202e-001  -1.221424638e+002
  1.960000000e+009  1.061031682e-001   1.371809854e+002   2.407979130e-001  -8.358488939e+001   2.407966719e-001  -8.358138255e+001   4.554425654e-001  -1.227183774e+002
  1.980000000e+009  1.161523404e-001   1.210108504e+002   2.382318410e-001  -1.326268525e+002   2.382351628e-001  -1.326244780e+002   4.479950865e-001  -1.208630830e+002
  2.000000000e+009  1.285105496e-001   1.309902686e+002   2.319233654e-001   1.781301920e+002   2.319281377e-001   1.781311299e+002   4.663003044e-001  -1.179241839e+002
  2.020000000e+009  2.015410931e-001   1.259695166e+002   2.227308973e-001   1.299164843e+002   2.227346393e-001   1.299161258e+002   5.039871180e-001  -1.184092494e+002
  2.040000000e+009  2.541562118e-001   1.049058688e+002   2.167985984e-001   8.297129495e+001   2.167996243e-001   8.296945020e+001   5.195846949e-001  -1.220281923e+002
  2.060000000e+009  2.485636684e-001   8.482300229e+001   2.166523445e-001   3.566703534e+001   2.166486634e-001   3.566453402e+001   4.984254314e-001  -1.242213534e+002
  2.080000000e+009  2.210113651e-001   7.663476463e+001   2.163264049e-001  -1.323300438e+001   2.163180176e-001  -1.323586113e+001   4.801789786e-001  -1.212749581e+002
  2.100000000e+009  2.414340299e-001   7.223183607e+001   2.097635392e-001  -6.228341449e+001   2.097501504e-001  -6.228609647e+001   5.109793781e-001  -1.179948955e+002
  2.120000000e+009  2.689967367e-001   5.509959632e+001   2.019180662e-001  -1.096080076e+002   2.019009053e-001  -1.096098103e+002   5.516723217e-001  -1.198312568e+002
  2.140000000e+009  2.461893500e-001   3.254950838e+001   1.998631807e-001  -1.560800513e+002   1.998445413e-001  -1.560804731e+002   5.569486780e-001  -1.234922766e+002
  2.160000000e+009  1.811884776e-001   1.621133222e+001   2.023753959e-001   1.562158356e+002   2.023570427e-001   1.562164164e+002   5.346804598e-001  -1.245425704e+002
  2.180000000e+009  1.417321412e-001   1.631567046e+001   2.023768612e-001   1.069823904e+002   2.023590121e-001   1.069838516e+002   5.288135622e-001  -1.220756851e+002
  2.200000000e+009  1.447985483e-001   5.803710060e+000   1.973635135e-001   5.796351249e+001   1.973479093e-001   5.796568236e+001   5.556214301e-001  -1.206167697e+002
  2.220000000e+009  1.152417432e-001  -2.513612078e+001   1.919651418e-001   1.008550685e+001   1.919529286e-001   1.008806772e+001   5.823084071e-001  -1.220074473e+002
  2.240000000e+009  4.748919795e-002  -7.868482567e+001   1.894256058e-001  -3.740133526e+001   1.894167193e-001  -3.739889969e+001   5.895020271e-001  -1.241818505e+002
  2.260000000e+009  4.099069042e-002   1.344726256e+002   1.889144336e-001  -8.543221570e+001   1.889072243e-001  -8.542990950e+001   5.820726894e-001  -1.253507636e+002
  2.280000000e+009  6.786131619e-002   9.007241948e+001   1.878252725e-001  -1.343059711e+002   1.878194476e-001  -1.343042543e+002   5.750419824e-001  -1.248287365e+002
  2.300000000e+009  7.110103899e-002   9.425829110e+001   1.836559225e-001   1.764507594e+002   1.836508522e-001   1.764519946e+002   5.847725463e-001  -1.234808311e+002
  2.320000000e+009  1.298700670e-001   9.762741347e+001   1.765922377e-001   1.279636237e+002   1.765868546e-001   1.279642411e+002   6.105059079e-001  -1.234978849e+002
