! Created Sun Jun 24 21:01:06 2012
# hz S ma R 100
! 2 Port Network Data from SP1.SP block
! freq  magS11  angS11  magS21  angS21  magS12  angS12  magS22  angS22  
!     
  0.000000000e+007  0  0  1  0  1  0  0  0
  2.000000000e+007  6.328771984e-002  -6.914931258e+000   9.568370065e-001  -2.302742810e+001   9.566525277e-001  -2.302276162e+001   5.078350620e-002   1.332485784e+002
  4.000000000e+007  5.763386103e-002  -1.769989873e+001   9.439312183e-001  -4.511048781e+001   9.437945307e-001  -4.510191293e+001   3.804319729e-002   8.045890814e+001
  6.000000000e+007  4.952359134e-002  -1.586814866e+001   9.341356756e-001  -6.703423705e+001   9.340663810e-001  -6.702319475e+001   4.508099121e-002   1.771517888e+001
  8.000000000e+007  5.549270854e-002  -5.934936997e+000   9.246610018e-001  -8.889030498e+001   9.246680334e-001  -8.887860459e+001   7.110961642e-002  -2.387015939e+001
  1.000000000e+008  7.615948319e-002  -8.243716802e+000   9.148143414e-001  -1.106546970e+002   9.148959653e-001  -1.106442581e+002   1.021726581e-001  -5.068078542e+001
  1.200000000e+008  9.936313333e-002  -2.223806284e+001   9.048414540e-001  -1.322977329e+002   9.049810587e-001  -1.322902693e+002   1.301184131e-001  -7.131819855e+001
  1.400000000e+008  1.162248864e-001  -4.198075564e+001   8.954859872e-001  -1.538116053e+002   8.956595976e-001  -1.538083914e+002   1.498378031e-001  -8.869105895e+001
  1.600000000e+008  1.214716209e-001  -6.485299269e+001   8.875715984e-001  -1.752265070e+002   8.877501572e-001  -1.752281178e+002   1.579258607e-001  -1.035947731e+002
  1.800000000e+008  1.122289557e-001  -9.034450672e+001   8.815446821e-001   1.633906930e+002   8.816948631e-001   1.633844326e+002   1.528506340e-001  -1.157436748e+002
  2.000000000e+008  8.807584479e-002  -1.200343196e+002   8.771061654e-001   1.419581798e+002   8.772023356e-001   1.419483591e+002   1.358738533e-001  -1.236177313e+002
  2.200000000e+008  5.341080681e-002  -1.629313494e+002   8.731547237e-001   1.204164366e+002   8.731821304e-001   1.204048346e+002   1.134324736e-001  -1.236268431e+002
  2.400000000e+008  3.876487126e-002   1.049454040e+002   8.681487768e-001   9.876540122e+001   8.681028593e-001   9.875405513e+001   1.012674189e-001  -1.119832541e+002
  2.600000000e+008  8.050588721e-002   3.757979119e+001   8.608549642e-001   7.707887068e+001   8.607450024e-001   7.706968387e+001   1.164520105e-001  -9.774057872e+001
  2.800000000e+008  1.331622849e-001   2.010722498e+000   8.511480423e-001   5.547775701e+001   8.509957361e-001   5.547208447e+001   1.518705930e-001  -9.394386318e+001
  3.000000000e+008  1.781336653e-001  -2.653382563e+001   8.402769178e-001   3.406808180e+001   8.401065793e-001   3.406669894e+001   1.890469543e-001  -9.846878323e+001
  3.200000000e+008  2.070731358e-001  -5.266383508e+001   8.303280992e-001   1.287740992e+001   8.301648028e-001   1.288047635e+001   2.157400409e-001  -1.066554643e+002
  3.400000000e+008  2.146080026e-001  -7.779899059e+001   8.232176100e-001  -8.172760232e+000   8.230831333e-001  -8.165683387e+000   2.255375436e-001  -1.157396147e+002
  3.600000000e+008  1.975105810e-001  -1.027885260e+002   8.196874951e-001  -2.924432183e+001   8.196032404e-001  -2.923418769e+001   2.163052199e-001  -1.236861291e+002
  3.800000000e+008  1.546895554e-001  -1.286819473e+002   8.187406917e-001  -5.051685845e+001   8.187195965e-001  -5.050517529e+001   1.909612373e-001  -1.278045668e+002
  4.000000000e+008  8.832284316e-002  -1.588544294e+002   8.176526602e-001  -7.209702604e+001   8.177025677e-001  -7.208585665e+001   1.619919672e-001  -1.236009118e+002
  4.200000000e+008  2.128619471e-002   9.969830314e+001   8.129642172e-001  -9.393514183e+001   8.130746529e-001  -9.392653605e+001   1.566314323e-001  -1.094451470e+002
  4.400000000e+008  9.751691357e-002  -4.642492268e-001   8.023679000e-001  -1.158061279e+002   8.025152917e-001  -1.158017751e+002   1.928755853e-001  -9.829233903e+001
  4.600000000e+008  1.869697748e-001  -3.009303639e+001   7.864620703e-001  -1.373999775e+002   7.866141414e-001  -1.374005284e+002   2.510040227e-001  -9.815996263e+001
  4.800000000e+008  2.615718128e-001  -5.485308304e+001   7.687741724e-001  -1.584851572e+002   7.689033783e-001  -1.584903028e+002   3.058312475e-001  -1.048475942e+002
  5.000000000e+008  3.128178953e-001  -7.781143435e+001   7.539905878e-001  -1.790331737e+002   7.540759558e-001  -1.790417736e+002   3.432171924e-001  -1.144840676e+002
  5.200000000e+008  3.360750681e-001  -9.976520549e+001   7.459006609e-001   1.607623503e+002   7.459315341e-001   1.607520550e+002   3.564387569e-001  -1.251476575e+002
  5.400000000e+008  3.285229849e-001  -1.211937948e+002   7.461502600e-001   1.405521429e+002   7.461243228e-001   1.405417983e+002   3.423522035e-001  -1.357435448e+002
  5.600000000e+008  2.879702963e-001  -1.423628280e+002   7.536132178e-001   1.199373048e+002   7.535384193e-001   1.199285293e+002   3.001162392e-001  -1.449656727e+002
  5.800000000e+008  2.137468351e-001  -1.628730816e+002   7.640240227e-001   9.860899274e+001   7.639090180e-001   9.860294092e+001   2.340774910e-001  -1.495751077e+002
  6.000000000e+008  1.106330477e-001  -1.786233158e+002   7.705206420e-001   7.651878987e+001   7.703815269e-001   7.651614864e+001   1.667731793e-001  -1.402046434e+002
  6.200000000e+008  3.412330094e-002  -9.775434937e+001   7.665364843e-001   5.399850993e+001   7.663929384e-001   5.399984104e+001   1.621155309e-001  -1.117260258e+002
  6.400000000e+008  1.439481516e-001  -7.312283460e+001   7.503123507e-001   3.166415499e+001   7.501849812e-001   3.166951198e+001   2.354833529e-001  -9.855641235e+001
  6.600000000e+008  2.485222484e-001  -9.080911100e+001   7.265868555e-001   1.008102970e+001   7.264997595e-001   1.008979370e+001   3.216364716e-001  -1.018805686e+002
  6.800000000e+008  3.251517701e-001  -1.108999983e+002   7.032632353e-001  -1.053584609e+001   7.032288629e-001  -1.052510015e+001   3.882909446e-001  -1.107137369e+002
  7.000000000e+008  3.694815101e-001  -1.311582400e+002   6.870027113e-001  -3.036372365e+001   6.870258722e-001  -3.035290448e+001   4.265678902e-001  -1.210433916e+002
  7.200000000e+008  3.809442078e-001  -1.515174822e+002   6.813521576e-001  -4.983608575e+001   6.814251243e-001  -4.982731042e+001   4.350325971e-001  -1.314974977e+002
  7.400000000e+008  3.591585769e-001  -1.724102424e+002   6.867155658e-001  -6.948551677e+001   6.868220044e-001  -6.948058690e+001   4.139841323e-001  -1.413472230e+002
  7.600000000e+008  3.032432038e-001   1.655686168e+002   7.004287021e-001  -8.980769441e+001   7.005467069e-001  -8.980709495e+001   3.649602751e-001  -1.494781967e+002
  7.800000000e+008  2.141412663e-001   1.416366229e+002   7.165933979e-001  -1.111040244e+002   7.167014079e-001  -1.111075220e+002   2.954162946e-001  -1.531125812e+002
  8.000000000e+008  9.945387405e-002   1.128489949e+002   7.271790259e-001  -1.333003131e+002   7.272583049e-001  -1.333068703e+002   2.304876888e-001  -1.464043228e+002
  8.200000000e+008  3.187862890e-002  -5.059188102e+001   7.260208974e-001  -1.558898805e+002   7.260586468e-001  -1.558983052e+002   2.179759304e-001  -1.286608317e+002
  8.400000000e+008  1.426453008e-001  -9.916776002e+001   7.132912436e-001  -1.781801870e+002   7.132864657e-001  -1.781893084e+002   2.666148910e-001  -1.176064489e+002
  8.600000000e+008  2.293442292e-001  -1.251911589e+002   6.951481562e-001   1.602965067e+002   6.951001076e-001   1.602878836e+002   3.291467348e-001  -1.178501327e+002
  8.800000000e+008  2.812722070e-001  -1.490644929e+002   6.789838720e-001   1.395730965e+002   6.788969882e-001   1.395663203e+002   3.752702137e-001  -1.232219369e+002
  9.000000000e+008  2.968750956e-001  -1.726190206e+002   6.695786223e-001   1.193347287e+002   6.694650396e-001   1.193310479e+002   3.963752030e-001  -1.300093116e+002
  9.200000000e+008  2.773678972e-001   1.627422752e+002   6.681174812e-001   9.912216118e+001   6.679915683e-001   9.912257095e+001   3.928881757e-001  -1.363501500e+002
  9.400000000e+008  2.260196853e-001   1.348009326e+002   6.725481599e-001   7.851711975e+001   6.724324196e-001   7.852179161e+001   3.701456016e-001  -1.407837069e+002
  9.600000000e+008  1.529211547e-001   9.757369956e+001   6.783038974e-001   5.730166834e+001   6.782204586e-001   5.730974090e+001   3.398082939e-001  -1.417680307e+002
  9.800000000e+008  9.760590558e-002   3.073647777e+001   6.800599190e-001   3.558156505e+001   6.800223023e-001   3.559126512e+001   3.203381025e-001  -1.388124130e+002
  1.000000000e+009  1.362276775e-001  -4.521600981e+001   6.748852377e-001   1.375714372e+001   6.748936857e-001   1.376663395e+001   3.256303354e-001  -1.347226730e+002
  1.020000000e+009  2.132592698e-001  -8.665886982e+001   6.643589211e-001  -7.721599875e+000   6.644054000e-001  -7.713928318e+000   3.493531094e-001  -1.334954167e+002
  1.040000000e+009  2.740359394e-001  -1.154886331e+002   6.532713559e-001  -2.864147808e+001   6.533402522e-001  -2.863648394e+001   3.726154697e-001  -1.359550412e+002
  1.060000000e+009  3.036455528e-001  -1.396946026e+002   6.463750411e-001  -4.912898266e+001   6.464528135e-001  -4.912688801e+001   3.804747813e-001  -1.406720329e+002
  1.080000000e+009  2.970303818e-001  -1.616033196e+002   6.460461243e-001  -6.955895959e+001   6.461225109e-001  -6.955960346e+001   3.658759521e-001  -1.458607863e+002
  1.100000000e+009  2.521895269e-001   1.781946536e+002   6.513726253e-001  -9.037849745e+001   6.514398146e-001  -9.038171291e+001   3.287422167e-001  -1.493685559e+002
  1.120000000e+009  1.706317981e-001   1.614852442e+002   6.580773799e-001  -1.119059268e+002   6.581272235e-001  -1.119116019e+002   2.795748923e-001  -1.476866486e+002
  1.140000000e+009  6.857720642e-002   1.680819844e+002   6.596520772e-001  -1.341253712e+002   6.596691108e-001  -1.341330132e+002   2.486626352e-001  -1.371015702e+002
  1.160000000e+009  9.749775568e-002  -1.110364482e+002   6.508721057e-001  -1.565832105e+002   6.508467761e-001  -1.565914320e+002   2.717404299e-001  -1.238661926e+002
  1.180000000e+009  2.158087099e-001  -1.157590611e+002   6.320805863e-001  -1.785813875e+002   6.320124537e-001  -1.785881840e+002   3.359788755e-001  -1.194785593e+002
  1.200000000e+009  3.165214691e-001  -1.321455109e+002   6.093354459e-001   1.603968682e+002   6.092409138e-001   1.603933778e+002   4.020613035e-001  -1.229957373e+002
  1.220000000e+009  3.863296374e-001  -1.496807591e+002   5.901067449e-001   1.404153692e+002   5.900087160e-001   1.404159526e+002   4.476431048e-001  -1.302182742e+002
  1.240000000e+009  4.227390352e-001  -1.668630624e+002   5.796392392e-001   1.211325026e+002   5.795577576e-001   1.211368596e+002   4.651565320e-001  -1.389015502e+002
  1.260000000e+009  4.257740151e-001   1.765665083e+002   5.801091136e-001   1.019850806e+002   5.800542954e-001   1.019916103e+002   4.522056391e-001  -1.480456017e+002
  1.280000000e+009  3.950348498e-001   1.608676705e+002   5.908235623e-001   8.234914839e+001   5.907991936e-001   8.235642987e+001   4.071480316e-001  -1.568561118e+002
  1.300000000e+009  3.309757507e-001   1.472659329e+002   6.079100720e-001   6.169062792e+001   6.079117920e-001   6.169712481e+001   3.303220853e-001  -1.634974395e+002
  1.320000000e+009  2.431072155e-001   1.403316980e+002   6.238880362e-001   3.978125447e+001   6.239103775e-001   3.978658283e+001   2.341797972e-001  -1.619297601e+002
  1.340000000e+009  1.739964638e-001   1.523496283e+002   6.297165328e-001   1.694273952e+001   6.297542514e-001   1.694689901e+001   1.745375477e-001  -1.380924709e+002
  1.360000000e+009  1.995564192e-001   1.746399191e+002   6.207085775e-001  -5.975749100e+000   6.207571397e-001  -5.973281342e+000   2.259630725e-001  -1.120634218e+002
  1.380000000e+009  2.827682419e-001   1.754596251e+002   6.006760990e-001  -2.808124388e+001   6.007297098e-001  -2.808069340e+001   3.226248590e-001  -1.090554122e+002
  1.400000000e+009  3.566485193e-001   1.646080238e+002   5.784487042e-001  -4.895995111e+001   5.784948338e-001  -4.896199724e+001   4.026114821e-001  -1.152157092e+002
  1.420000000e+009  4.015812036e-001   1.500375486e+002   5.617125777e-001  -6.876394719e+001   5.617432102e-001  -6.876813839e+001   4.511744811e-001  -1.237858368e+002
  1.440000000e+009  4.147405232e-001   1.340945930e+002   5.545633192e-001  -8.798639882e+001   5.545705203e-001  -8.799216153e+001   4.676478111e-001  -1.327349685e+002
  1.460000000e+009  3.964650230e-001   1.173915260e+002   5.578979961e-001  -1.072364822e+002   5.578796618e-001  -1.072424012e+002   4.538112512e-001  -1.412805947e+002
  1.480000000e+009  3.469060888e-001   1.002142382e+002   5.699918298e-001  -1.270874641e+002   5.699473629e-001  -1.270923909e+002   4.117243070e-001  -1.486029230e+002
  1.500000000e+009  2.675304801e-001   8.348817633e+001   5.864919856e-001  -1.479336533e+002   5.864281241e-001  -1.479366549e+002   3.468199139e-001  -1.528811525e+002
  1.520000000e+009  1.665870565e-001   7.132949464e+001   6.009303742e-001  -1.698228363e+002   6.008585397e-001  -1.698234482e+002   2.760529726e-001  -1.501934538e+002
  1.540000000e+009  7.643731453e-002   8.832563557e+001   6.072722787e-001   1.676247587e+002   6.072022055e-001   1.676261592e+002   2.358883293e-001  -1.368804823e+002
  1.560000000e+009  1.029263951e-001   1.395195473e+002   6.036127260e-001   1.450441414e+002   6.035535776e-001   1.450474010e+002   2.545132055e-001  -1.217897882e+002
  1.580000000e+009  1.757658608e-001   1.355428510e+002   5.931085900e-001   1.229595355e+002   5.930645941e-001   1.229639163e+002   3.058406128e-001  -1.158602327e+002
  1.600000000e+009  2.236451910e-001   1.180448586e+002   5.810463545e-001   1.015411912e+002   5.810184856e-001   1.015463914e+002   3.543090963e-001  -1.166065248e+002
  1.620000000e+009  2.383799656e-001   9.643475941e+001   5.715490240e-001   8.063152440e+001   5.715402255e-001   8.063692056e+001   3.858612327e-001  -1.198312917e+002
  1.640000000e+009  2.220855285e-001   7.148397406e+001   5.662229695e-001   5.991048129e+001   5.662325132e-001   5.991545278e+001   3.995446684e-001  -1.232638360e+002
  1.660000000e+009  1.819182955e-001   4.108786739e+001   5.642980501e-001   3.907728833e+001   5.643252803e-001   3.908073333e+001   4.004094114e-001  -1.257534158e+002
  1.680000000e+009  1.340570357e-001  -1.008355327e+000   5.635774919e-001   1.798434496e+001   5.636120509e-001   1.798569112e+001   3.963366312e-001  -1.268755992e+002
  1.700000000e+009  1.143314944e-001  -6.163290927e+001   5.618909538e-001  -3.311826031e+000   5.619216972e-001  -3.312842120e+000   3.945970058e-001  -1.269998815e+002
  1.720000000e+009  1.457308938e-001  -1.177878136e+002   5.584980944e-001  -2.462706600e+001   5.585120516e-001  -2.462986897e+001   3.974205594e-001  -1.270767781e+002
  1.740000000e+009  1.923807681e-001  -1.560667583e+002   5.544605884e-001  -4.580848140e+001   5.544546225e-001  -4.581188300e+001   4.006654764e-001  -1.278279425e+002
  1.760000000e+009  2.241255777e-001   1.747286685e+002   5.516378935e-001  -6.686511690e+001   5.516149174e-001  -6.686804440e+001   3.976429445e-001  -1.291445597e+002
  1.780000000e+009  2.280876664e-001   1.497970921e+002   5.511775246e-001  -8.797606520e+001   5.511437340e-001  -8.797785684e+001   3.840575313e-001  -1.301379671e+002
  1.800000000e+009  1.989975301e-001   1.278156848e+002   5.525166162e-001  -1.093915057e+002   5.524803080e-001  -1.093920210e+002   3.614534940e-001  -1.293528955e+002
  1.820000000e+009  1.374968705e-001   1.108370387e+002   5.531530192e-001  -1.312856946e+002   5.531169879e-001  -1.312854520e+002   3.403182286e-001  -1.252156358e+002
  1.840000000e+009  6.031571041e-002   1.210360720e+002   5.494318156e-001  -1.536072803e+002   5.493976414e-001  -1.536064636e+002   3.395403003e-001  -1.179323366e+002
  1.860000000e+009  9.036152793e-002  -1.703410682e+002   5.386362677e-001  -1.760098929e+002   5.386041177e-001  -1.760084360e+002   3.715823865e-001  -1.113657321e+002
  1.880000000e+009  1.924729415e-001  -1.748550645e+002   5.212693476e-001   1.620241413e+002   5.212408104e-001   1.620261966e+002   4.263764316e-001  -1.091106551e+002
  1.900000000e+009  2.854288820e-001   1.683733385e+002   5.011738498e-001   1.409060199e+002   5.011521292e-001   1.409087714e+002   4.827980362e-001  -1.109559591e+002
  1.920000000e+009  3.553621936e-001   1.499140747e+002   4.833026878e-001   1.207323419e+002   4.832905703e-001   1.207353766e+002   5.257173291e-001  -1.151586745e+002
  1.940000000e+009  3.979926903e-001   1.314928754e+002   4.715114529e-001   1.012739872e+002   4.715070587e-001   1.012766479e+002   5.484947228e-001  -1.203453879e+002
  1.960000000e+009  4.120711089e-001   1.134404985e+002   4.677920873e-001   8.208540107e+001   4.677932768e-001   8.208722043e+001   5.490459686e-001  -1.256655269e+002
  1.980000000e+009  3.964762486e-001   9.586751576e+001   4.723137160e-001   6.261896312e+001   4.723174843e-001   6.261982912e+001   5.269219491e-001  -1.304103204e+002
  2.000000000e+009  3.497900379e-001   7.931878223e+001   4.832365108e-001   4.233078837e+001   4.832376022e-001   4.233077019e+001   4.837107153e-001  -1.335063554e+002
  2.020000000e+009  2.738409596e-001   6.610225247e+001   4.961034828e-001   2.083356248e+001   4.960993329e-001   2.083315436e+001   4.282088942e-001  -1.329691475e+002
  2.040000000e+009  1.868345072e-001   6.454934916e+001   5.040127487e-001  -1.867595975e+000   5.040034077e-001  -1.868481480e+000   3.855335241e-001  -1.265006434e+002
  2.060000000e+009  1.562445305e-001   8.754788976e+001   5.005788767e-001  -2.520123384e+001   5.005636831e-001  -2.520190387e+001   3.906811715e-001  -1.162788544e+002
  2.080000000e+009  2.243059051e-001   9.991591962e+001   4.847424227e-001  -4.821821682e+001   4.847253649e-001  -4.821870808e+001   4.458431943e-001  -1.097923848e+002
  2.100000000e+009  3.124872499e-001   9.145614783e+001   4.617641392e-001  -7.012793273e+001   4.617458819e-001  -7.012827229e+001   5.169339462e-001  -1.092534709e+002
  2.120000000e+009  3.802401694e-001   7.616713122e+001   4.389052503e-001  -9.067116881e+001   4.388861712e-001  -9.067134779e+001   5.771010180e-001  -1.122028663e+002
  2.140000000e+009  4.200786130e-001   5.882664905e+001   4.214292819e-001  -1.100741960e+002   4.214102806e-001  -1.100740224e+002   6.170891480e-001  -1.165229744e+002
  2.160000000e+009  4.328940769e-001   4.067379225e+001   4.118371336e-001  -1.288190191e+002   4.118190425e-001  -1.288186680e+002   6.362892827e-001  -1.211449804e+002
  2.180000000e+009  4.202062775e-001   2.191338797e+001   4.106688370e-001  -1.474670405e+002   4.106506147e-001  -1.474665633e+002   6.362649843e-001  -1.255360467e+002
  2.200000000e+009  3.821491739e-001   2.506312487e+000   4.171533315e-001  -1.665662906e+002   4.171353575e-001  -1.665659691e+002   6.186886921e-001  -1.292767637e+002
  2.220000000e+009  3.180139081e-001  -1.737613825e+001   4.292066290e-001   1.734140548e+002   4.291873232e-001   1.734141533e+002   5.861862966e-001  -1.317743297e+002
  2.240000000e+009  2.288895354e-001  -3.648199405e+001   4.430662871e-001   1.521801127e+002   4.430444734e-001   1.521800945e+002   5.455086916e-001  -1.321144441e+002
  2.260000000e+009  1.237234744e-001  -4.790205374e+001   4.533672650e-001   1.297591265e+002   4.533405966e-001   1.297594828e+002   5.114653637e-001  -1.294550694e+002
  2.280000000e+009  5.990720236e-002  -1.005577136e+000   4.549615863e-001   1.066157610e+002   4.549319127e-001   1.066164580e+002   5.034900814e-001  -1.245138164e+002
  2.300000000e+009  1.361897735e-001   2.583869269e+001   4.462148034e-001   8.352911473e+001   4.461852792e-001   8.353061810e+001   5.282915398e-001  -1.201335349e+002
  2.320000000e+009  2.184138215e-001   9.716604525e+000   4.302185068e-001   6.119899620e+001   4.301923133e-001   6.120107678e+001   5.719213896e-001  -1.183868825e+002
