! Created Sun Jun 24 21:07:10 2012
# hz S ma R 100
! 2 Port Network Data from SP1.SP block
! freq  magS11  angS11  magS21  angS21  magS12  angS12  magS22  angS22  
!     
  0.000000000e+007  0  0  1  0  1  0  0  0
  2.000000000e+007  8.609345980e-002  -6.162549296e+000   9.260535362e-001  -4.750733739e+001   9.258739566e-001  -4.750269585e+001   6.187085076e-002   4.975355763e+001
  4.000000000e+007  8.062702568e-002  -1.766354019e+001   8.983695058e-001  -9.293044660e+001   8.982377130e-001  -9.292181161e+001   9.479284540e-002  -2.755423789e+001
  6.000000000e+007  8.305909333e-002  -2.667017634e+001   8.770718205e-001  -1.378933967e+002   8.770062376e-001  -1.378821798e+002   1.134759969e-001  -7.973018079e+001
  8.000000000e+007  7.160375598e-002  -4.610688615e+001   8.595286021e-001   1.773978282e+002   8.595375079e-001   1.774096904e+002   9.341150688e-002  -1.183519325e+002
  1.000000000e+008  3.402687863e-002  -3.855829205e+001   8.444257660e-001   1.327179120e+002   8.445045164e-001   1.327282726e+002   4.256632126e-002  -1.231728732e+002
  1.200000000e+008  6.947910051e-002   7.786884506e+000   8.279294506e-001   8.806206265e+001   8.280570113e-001   8.806928800e+001   6.741968833e-002  -6.997351242e+001
  1.400000000e+008  1.238043217e-001  -1.940126988e+001   8.103670474e-001   4.370191915e+001   8.105206204e-001   4.370510593e+001   1.191924788e-001  -8.842906749e+001
  1.600000000e+008  1.275120740e-001  -5.486541862e+001   7.966286320e-001  -3.959979671e-001   7.967876499e-001  -3.973576128e-001   1.221494052e-001  -1.122285468e+002
  1.800000000e+008  6.940293072e-002  -8.011198802e+001   7.865500641e-001  -4.466794676e+001   7.866862101e-001  -4.467406498e+001   8.199732107e-002  -1.147032530e+002
  2.000000000e+008  6.071929359e-002  -1.092029229e+001   7.729772835e-001  -8.916719367e+001   7.730629652e-001  -8.917703004e+001   1.015457175e-001  -8.132111729e+001
  2.200000000e+008  1.524475588e-001  -2.981032420e+001   7.546852774e-001  -1.332815771e+002   7.547087689e-001  -1.332930605e+002   1.723759252e-001  -9.098055444e+001
  2.400000000e+008  1.912191917e-001  -6.674282526e+001   7.412506664e-001  -1.768095016e+002   7.412143330e-001  -1.768206444e+002   1.944807476e-001  -1.142766743e+002
  2.600000000e+008  1.476616395e-001  -1.029238843e+002   7.371935590e-001   1.394471900e+002   7.371044816e-001   1.394378739e+002   1.439221725e-001  -1.319819314e+002
  2.800000000e+008  4.872816106e-002  -1.007432089e+002   7.314700236e-001   9.488821632e+001   7.313395729e-001   9.488208398e+001   8.999224360e-002  -1.026786712e+002
  3.000000000e+008  1.206286606e-001  -4.689301237e+001   7.135876858e-001   5.036606031e+001   7.134368509e-001   5.036451684e+001   1.761701315e-001  -8.421730958e+001
  3.200000000e+008  2.007779503e-001  -8.035090413e+001   6.939752159e-001   6.939175104e+000   6.938344988e-001   6.942815630e+000   2.482244878e-001  -1.033834225e+002
  3.400000000e+008  1.938919886e-001  -1.204042954e+002   6.877240711e-001  -3.601771736e+001   6.876179737e-001  -3.600999146e+001   2.385476701e-001  -1.246735070e+002
  3.600000000e+008  9.729018428e-002  -1.615048670e+002   6.901584746e-001  -7.993763074e+001   6.900976514e-001  -7.992769380e+001   1.633306941e-001  -1.312180095e+002
  3.800000000e+008  4.611925448e-002  -3.890099628e+001   6.825839575e-001  -1.247533824e+002   6.825684562e-001  -1.247424032e+002   1.520706382e-001  -1.028097821e+002
  4.000000000e+008  1.548873216e-001  -7.761773662e+001   6.634289014e-001  -1.688878470e+002   6.634653572e-001  -1.688769582e+002   2.322577555e-001  -1.015113806e+002
  4.200000000e+008  1.745144152e-001  -1.220301850e+002   6.502996926e-001   1.479876951e+002   6.503868721e-001   1.479963345e+002   2.640975232e-001  -1.158354536e+002
  4.400000000e+008  9.688527522e-002  -1.737404587e+002   6.480756712e-001   1.045300518e+002   6.481932835e-001   1.045342016e+002   2.328793651e-001  -1.242773829e+002
  4.600000000e+008  5.451700712e-002   7.255331935e+000   6.425742883e-001   6.017953883e+001   6.426919393e-001   6.017906265e+001   2.138643136e-001  -1.168308786e+002
  4.800000000e+008  1.704222544e-001  -5.724097592e+001   6.274787888e-001   1.613704898e+001   6.275807912e-001   1.613283085e+001   2.541573265e-001  -1.142901757e+002
  5.000000000e+008  2.021489481e-001  -1.009587196e+002   6.162293654e-001  -2.705187352e+001   6.163085384e-001  -2.705952137e+001   2.708103846e-001  -1.231471829e+002
  5.200000000e+008  1.243035874e-001  -1.362590099e+002   6.143245239e-001  -7.064024935e+001   6.143643599e-001  -7.065085640e+001   2.333383870e-001  -1.267803258e+002
  5.400000000e+008  5.971486799e-002  -5.789595502e+001   6.065185558e-001  -1.152326607e+002   6.065006934e-001  -1.152441600e+002   2.280452972e-001  -1.135369998e+002
  5.600000000e+008  2.090812601e-001  -6.956704405e+001   5.852536933e-001  -1.591836653e+002   5.851884370e-001  -1.591929088e+002   3.023484032e-001  -1.121857173e+002
  5.800000000e+008  2.835185788e-001  -1.044591230e+002   5.694391759e-001   1.585092048e+002   5.693505445e-001   1.585036074e+002   3.421263602e-001  -1.255532853e+002
  6.000000000e+008  2.444640929e-001  -1.371918049e+002   5.724487532e-001   1.161133508e+002   5.723490120e-001   1.161108642e+002   2.946436715e-001  -1.386352192e+002
  6.200000000e+008  1.198038708e-001  -1.455857409e+002   5.787711008e-001   7.170507873e+001   5.786624666e-001   7.170620825e+001   2.102544586e-001  -1.306609420e+002
  6.400000000e+008  1.616321643e-001  -9.979854030e+001   5.640371000e-001   2.662069743e+001   5.639391862e-001   2.662654520e+001   2.637130987e-001  -1.096093742e+002
  6.600000000e+008  2.742900496e-001  -1.213401373e+002   5.398407100e-001  -1.640100207e+001   5.397843195e-001  -1.639148658e+001   3.591507454e-001  -1.175799203e+002
  6.800000000e+008  2.840805937e-001  -1.538954960e+002   5.329422863e-001  -5.795079133e+001   5.329297946e-001  -5.794067027e+001   3.704745180e-001  -1.328982886e+002
  7.000000000e+008  1.810195767e-001   1.750077604e+002   5.436573387e-001  -1.007956584e+002   5.436770085e-001  -1.007865134e+002   2.980606325e-001  -1.414954584e+002
  7.200000000e+008  5.682899934e-002  -1.445928924e+002   5.470149025e-001  -1.457089865e+002   5.470606839e-001  -1.457009526e+002   2.469123922e-001  -1.285159453e+002
  7.400000000e+008  1.724180740e-001  -1.236853599e+002   5.318223765e-001   1.697667792e+002   5.318959582e-001   1.697726009e+002   3.082711531e-001  -1.199480198e+002
  7.600000000e+008  2.155263979e-001  -1.575541000e+002   5.182459503e-001   1.269164482e+002   5.183373844e-001   1.269180152e+002   3.541101774e-001  -1.275506085e+002
  7.800000000e+008  1.392917789e-001   1.635955971e+002   5.173827520e-001   8.404802850e+001   5.174670684e-001   8.404453900e+001   3.362279484e-001  -1.345853983e+002
  8.000000000e+008  1.979980834e-002  -4.870738006e+001   5.162909511e-001   3.997075773e+001   5.163479544e-001   3.996412814e+001   3.118387162e-001  -1.324346676e+002
  8.200000000e+008  1.698935843e-001  -9.463226860e+001   5.053534062e-001  -4.007340478e+000   5.053826370e-001  -4.015235427e+000   3.346102681e-001  -1.304240315e+002
  8.400000000e+008  2.271388327e-001  -1.309945132e+002   4.964876399e-001  -4.695717540e+001   4.964941183e-001  -4.696630492e+001   3.455919136e-001  -1.358102564e+002
  8.600000000e+008  1.667812661e-001  -1.573269294e+002   4.968314715e-001  -9.030609864e+001   4.968009296e-001  -9.031568641e+001   3.074732216e-001  -1.384040816e+002
  8.800000000e+008  9.968339067e-002  -1.207782043e+002   4.918037483e-001  -1.349602765e+002   4.917350392e-001  -1.349671860e+002   2.937285436e-001  -1.285815177e+002
  9.000000000e+008  2.314781941e-001  -1.117183427e+002   4.722422706e-001  -1.789326124e+002   4.721644878e-001  -1.789349866e+002   3.604679872e-001  -1.256204905e+002
  9.200000000e+008  3.197612202e-001  -1.376891354e+002   4.564412767e-001   1.392364535e+002   4.563724743e-001   1.392373667e+002   4.033576678e-001  -1.355819940e+002
  9.400000000e+008  3.006583187e-001  -1.637611279e+002   4.593797300e-001   9.763703579e+001   4.593164420e-001   9.764013937e+001   3.626327034e-001  -1.467641140e+002
  9.600000000e+008  2.007963038e-001  -1.734425640e+002   4.692975157e-001   5.374546706e+001   4.692418306e-001   5.375145418e+001   2.729608211e-001  -1.437455275e+002
  9.800000000e+008  2.024875159e-001  -1.504273743e+002   4.614548111e-001   8.553301507e+000   4.614249025e-001   8.561880586e+000   2.937478657e-001  -1.247618302e+002
  1.000000000e+009  2.990320608e-001  -1.601786326e+002   4.411273060e-001  -3.464829689e+001   4.411312899e-001  -3.463944719e+001   3.862677757e-001  -1.272496322e+002
  1.020000000e+009  3.170952725e-001   1.749003518e+002   4.333550905e-001  -7.590402795e+001   4.333836905e-001  -7.589721118e+001   4.099356222e-001  -1.393561323e+002
  1.040000000e+009  2.323765137e-001   1.509238138e+002   4.426464522e-001  -1.180568978e+002   4.426874444e-001  -1.180524520e+002   3.523285176e-001  -1.478684510e+002
  1.060000000e+009  1.139247950e-001   1.598974486e+002   4.506376204e-001  -1.624711874e+002   4.506881442e-001  -1.624687215e+002   2.894860984e-001  -1.412109411e+002
  1.080000000e+009  1.648395034e-001  -1.704123230e+002   4.435624458e-001   1.528305581e+002   4.436209362e-001   1.528301889e+002   3.199879604e-001  -1.311331456e+002
  1.100000000e+009  2.083267183e-001   1.682336200e+002   4.334410409e-001   1.095467428e+002   4.334922180e-001   1.095423219e+002   3.635864015e-001  -1.342199930e+002
  1.120000000e+009  1.439040241e-001   1.397010560e+002   4.310287312e-001   6.657481252e+001   4.310554526e-001   6.656760606e+001   3.590845858e-001  -1.392928286e+002
  1.140000000e+009  2.780819676e-002  -1.663625607e+002   4.296982448e-001   2.278639132e+001   4.296979690e-001   2.277895756e+001   3.420938140e-001  -1.390151618e+002
  1.160000000e+009  1.527278300e-001  -1.319256848e+002   4.228314258e-001  -2.099596475e+001   4.228156057e-001  -2.100277397e+001   3.514439833e-001  -1.383349976e+002
  1.180000000e+009  2.173601400e-001  -1.592649237e+002   4.173748739e-001  -6.408838074e+001   4.173415639e-001  -6.409478719e+001   3.499915038e-001  -1.420310678e+002
  1.200000000e+009  1.823809340e-001  -1.774918273e+002   4.173060937e-001  -1.076173327e+002   4.172520276e-001  -1.076217697e+002   3.121117114e-001  -1.425246978e+002
  1.220000000e+009  1.484093421e-001  -1.583789545e+002   4.121850773e-001  -1.521730325e+002   4.121235503e-001  -1.521738650e+002   3.025490461e-001  -1.329645269e+002
  1.240000000e+009  2.462639127e-001  -1.521443559e+002   3.965187205e-001   1.640044560e+002   3.964680447e-001   1.640068553e+002   3.616580163e-001  -1.300071936e+002
  1.260000000e+009  3.241888849e-001  -1.715177910e+002   3.839565697e-001   1.221109849e+002   3.839184395e-001   1.221148054e+002   3.984756004e-001  -1.384541828e+002
  1.280000000e+009  3.165130804e-001   1.675553992e+002   3.853957599e-001   8.047775264e+001   3.853666705e-001   8.048274094e+001   3.604840165e-001  -1.480110168e+002
  1.300000000e+009  2.485261786e-001   1.585269950e+002   3.927455498e-001   3.691780497e+001   3.927282202e-001   3.692377615e+001   2.791506152e-001  -1.452329383e+002
  1.320000000e+009  2.423925507e-001   1.672786647e+002   3.884761486e-001  -7.894469038e+000   3.884787349e-001  -7.888170514e+000   2.881500172e-001  -1.277316946e+002
  1.340000000e+009  3.048994326e-001   1.600213714e+002   3.744549912e-001  -5.123923535e+001   3.744755382e-001  -5.123431246e+001   3.685883379e-001  -1.276182167e+002
  1.360000000e+009  3.147802568e-001   1.399835055e+002   3.678929109e-001  -9.286945109e+001   3.679202668e-001  -9.286707722e+001   3.951310490e-001  -1.374994466e+002
  1.380000000e+009  2.445874119e-001   1.205472518e+002   3.737383919e-001  -1.350043223e+002   3.737664736e-001  -1.350036537e+002   3.503847119e-001  -1.449321097e+002
  1.400000000e+009  1.498788060e-001   1.219924919e+002   3.807962539e-001  -1.789981126e+002   3.808239791e-001  -1.789993143e+002   2.931585644e-001  -1.402537206e+002
  1.420000000e+009  1.585565586e-001   1.406539118e+002   3.783528016e-001   1.363774849e+002   3.783765265e-001   1.363738510e+002   3.059580026e-001  -1.301301996e+002
  1.440000000e+009  1.794267021e-001   1.269912446e+002   3.713908905e-001   9.261947005e+001   3.713984153e-001   9.261364990e+001   3.443102324e-001  -1.298257438e+002
  1.460000000e+009  1.192540216e-001   1.047866562e+002   3.674878592e-001   4.932738751e+001   3.674770725e-001   4.932155908e+001   3.530604561e-001  -1.329144640e+002
  1.480000000e+009  3.309736537e-002   1.640077459e+002   3.649094600e-001   5.721305191e+000   3.648858522e-001   5.716577549e+000   3.479263542e-001  -1.336718775e+002
  1.500000000e+009  1.331582161e-001  -1.676046969e+002   3.606863227e-001  -3.791197981e+001   3.606549059e-001  -3.791560584e+001   3.486600511e-001  -1.342082679e+002
  1.520000000e+009  1.852554127e-001   1.702882193e+002   3.575321055e-001  -8.136299997e+001   3.574936907e-001  -8.136515110e+001   3.357138956e-001  -1.357877202e+002
  1.540000000e+009  1.649527523e-001   1.593053427e+002   3.556167018e-001  -1.253072736e+002   3.555742097e-001  -1.253074125e+002   3.076977167e-001  -1.325901112e+002
  1.560000000e+009  1.693857782e-001   1.734304061e+002   3.484985393e-001  -1.697418411e+002   3.484610549e-001  -1.697396226e+002   3.197304636e-001  -1.239686978e+002
  1.580000000e+009  2.532185811e-001   1.711417592e+002   3.355152508e-001   1.467716507e+002   3.354879008e-001   1.467751141e+002   3.745376776e-001  -1.233353776e+002
  1.600000000e+009  3.107527828e-001   1.529493400e+002   3.266034720e-001   1.047837210e+002   3.265843519e-001   1.047878107e+002   3.986215791e-001  -1.305123276e+002
  1.620000000e+009  3.005499708e-001   1.346892036e+002   3.275942503e-001   6.272913223e+001   3.275827491e-001   6.273359623e+001   3.603326856e-001  -1.367568476e+002
  1.640000000e+009  2.535664249e-001   1.272419267e+002   3.312346343e-001   1.898307660e+001   3.312327687e-001   1.898771833e+001   3.016955812e-001  -1.313664269e+002
  1.660000000e+009  2.590231809e-001   1.293788436e+002   3.258248358e-001  -2.557710283e+001   3.258344165e-001  -2.557362351e+001   3.253829624e-001  -1.184735109e+002
  1.680000000e+009  3.014992338e-001   1.191425913e+002   3.144638338e-001  -6.872247262e+001   3.144772654e-001  -6.872079472e+001   3.951759737e-001  -1.189258499e+002
  1.700000000e+009  2.983884808e-001   9.982070690e+001   3.093858992e-001  -1.104628340e+002   3.093987615e-001  -1.104627922e+002   4.186423317e-001  -1.263180586e+002
  1.720000000e+009  2.331140555e-001   8.167629011e+001   3.134447730e-001  -1.527552121e+002   3.134552253e-001  -1.527565563e+002   3.852970517e-001  -1.312570952e+002
  1.740000000e+009  1.547838463e-001   8.037844891e+001   3.182283493e-001   1.632649432e+002   3.182346340e-001   1.632621007e+002   3.446464172e-001  -1.274198251e+002
  1.760000000e+009  1.507851052e-001   9.032363818e+001   3.157172050e-001   1.186499231e+002   3.157146366e-001   1.186460118e+002   3.579964635e-001  -1.199071697e+002
  1.780000000e+009  1.547467380e-001   7.551886420e+001   3.090106887e-001   7.479011676e+001   3.089979890e-001   7.478624208e+001   3.978405665e-001  -1.187273100e+002
  1.800000000e+009  9.641090442e-002   4.804019983e+001   3.039978519e-001   3.153562463e+001   3.039784947e-001   3.153257536e+001   4.197674050e-001  -1.210408999e+002
  1.820000000e+009  7.182040086e-003  -1.708427005e+002   3.009587678e-001  -1.177509529e+001   3.009341875e-001  -1.177729122e+001   4.239166364e-001  -1.230660535e+002
  1.840000000e+009  1.019449413e-001   1.641345646e+002   2.984074087e-001  -5.525202611e+001   2.983796909e-001  -5.525301725e+001   4.194153954e-001  -1.242690949e+002
  1.860000000e+009  1.399301313e-001   1.385047929e+002   2.963769813e-001  -9.897472371e+001   2.963491877e-001  -9.897424719e+001   4.061928539e-001  -1.239884304e+002
  1.880000000e+009  1.243645912e-001   1.318253609e+002   2.929520282e-001  -1.432447698e+002   2.929269026e-001  -1.432432239e+002   3.993434801e-001  -1.204082083e+002
  1.900000000e+009  1.521004225e-001   1.464361460e+002   2.844049507e-001   1.724499598e+002   2.843840668e-001   1.724524301e+002   4.275751261e-001  -1.165130499e+002
  1.920000000e+009  2.338428312e-001   1.374679628e+002   2.730441420e-001   1.293512131e+002   2.730285578e-001   1.293543369e+002   4.723266991e-001  -1.177614143e+002
  1.940000000e+009  2.825144561e-001   1.166003046e+002   2.664046253e-001   8.748485359e+001   2.663941915e-001   8.748823782e+001   4.877949391e-001  -1.225186294e+002
  1.960000000e+009  2.714589428e-001   9.708656038e+001   2.671511640e-001   4.524350328e+001   2.671466394e-001   4.524654616e+001   4.603910350e-001  -1.256731345e+002
  1.980000000e+009  2.316476358e-001   8.883240734e+001   2.686790849e-001   1.330951343e+000   2.686795719e-001   1.333107759e+000   4.278321445e-001  -1.222650889e+002
  2.000000000e+009  2.415082946e-001   8.897955768e+001   2.625433667e-001  -4.319414488e+001   2.625452924e-001  -4.319310770e+001   4.521621751e-001  -1.162383107e+002
  2.020000000e+009  2.832091418e-001   7.670238641e+001   2.519148410e-001  -8.623136897e+001   2.519165016e-001  -8.623123625e+001   5.070963949e-001  -1.166196660e+002
  2.040000000e+009  2.852572229e-001   5.554093401e+001   2.462408700e-001  -1.277874278e+002   2.462410054e-001  -1.277886117e+002   5.319491421e-001  -1.211128927e+002
  2.060000000e+009  2.318016174e-001   3.443688349e+001   2.482301112e-001  -1.697073427e+002   2.482258415e-001  -1.697091801e+002   5.150611260e-001  -1.246360099e+002
  2.080000000e+009  1.572043331e-001   2.586988982e+001   2.520706126e-001   1.466661005e+002   2.520616999e-001   1.466640645e+002   4.864910073e-001  -1.236638072e+002
  2.100000000e+009  1.397091561e-001   3.247395484e+001   2.503238658e-001   1.020418032e+002   2.503113873e-001   1.020399883e+002   4.918322415e-001  -1.197926610e+002
  2.120000000e+009  1.514203643e-001   1.774058484e+001   2.434567768e-001   5.807482835e+001   2.434417826e-001   5.807325654e+001   5.269408058e-001  -1.185939599e+002
  2.140000000e+009  1.205407937e-001  -1.601552027e+001   2.371420762e-001   1.516792322e+001   2.371245444e-001   1.516696467e+001   5.552968178e-001  -1.204131258e+002
  2.160000000e+009  5.656810345e-002  -7.574721406e+001   2.341064211e-001  -2.742975614e+001   2.340877956e-001  -2.742984935e+001   5.633863406e-001  -1.228630669e+002
  2.180000000e+009  5.481810186e-002   1.613227337e+002   2.334317076e-001  -7.044350859e+001   2.334136178e-001  -7.044270582e+001   5.563778084e-001  -1.243904162e+002
  2.200000000e+009  8.532776918e-002   1.089465121e+002   2.329170797e-001  -1.141807516e+002   2.329006964e-001  -1.141796998e+002   5.453604920e-001  -1.242310974e+002
  2.220000000e+009  7.484749069e-002   9.550380307e+001   2.298565815e-001  -1.585295558e+002   2.298410708e-001  -1.585283300e+002   5.460983858e-001  -1.224948941e+002
  2.240000000e+009  1.006043332e-001   1.162472198e+002   2.225280163e-001   1.572880597e+002   2.225145024e-001   1.572896514e+002   5.692412062e-001  -1.211368555e+002
  2.260000000e+009  1.803845028e-001   1.040676420e+002   2.133744014e-001   1.143004692e+002   2.133634340e-001   1.143024754e+002   6.005192210e-001  -1.221688685e+002
  2.280000000e+009  2.371691469e-001   7.898149496e+001   2.075207637e-001   7.249575782e+001   2.075121634e-001   7.249732871e+001   6.144460135e-001  -1.249596072e+002
  2.300000000e+009  2.430022414e-001   5.497963735e+001   2.071751614e-001   3.051560070e+001   2.071672146e-001   3.051681974e+001   6.013860389e-001  -1.272127234e+002
  2.320000000e+009  2.116394682e-001   4.085269703e+001   2.084804852e-001  -1.300633688e+001   2.084721633e-001  -1.300547565e+001   5.794978447e-001  -1.265683707e+002
