! Created Sun Jun 24 21:04:19 2012
# hz S ma R 100
! 2 Port Network Data from SP1.SP block
! freq  magS11  angS11  magS21  angS21  magS12  angS12  magS22  angS22  
!     
  0.000000000e+007  0  0  1  0  1  0  0  0
  2.000000000e+007  7.639428718e-002  -4.660399062e+000   9.395150516e-001  -3.663953843e+001   9.393333598e-001  -3.663489179e+001   5.097167542e-002   8.260091850e+001
  4.000000000e+007  7.216993387e-002  -1.390859150e+001   9.181289821e-001  -7.169692100e+001   9.179948680e-001  -7.168833101e+001   6.910033109e-002   5.325348510e+000
  6.000000000e+007  7.664931428e-002  -1.541429501e+001   9.013255817e-001  -1.064410710e+002   9.012576792e-001  -1.064299371e+002   1.003376012e-001  -4.484647391e+001
  8.000000000e+007  8.980764681e-002  -2.830215307e+001   8.859754124e-001  -1.409566436e+002   8.859825221e-001  -1.409447857e+002   1.206871607e-001  -8.126512869e+001
  1.000000000e+008  8.692386618e-002  -5.170949119e+001   8.730277191e-001  -1.752884754e+002   8.731083747e-001  -1.752779274e+002   1.162866914e-001  -1.095005069e+002
  1.200000000e+008  5.544627230e-002  -7.695214458e+001   8.626066544e-001   1.504023932e+002   8.627432547e-001   1.504097408e+002   8.574782717e-002  -1.265484203e+002
  1.400000000e+008  1.243864506e-002  -1.209580413e+001   8.524264922e-001   1.160041511e+002   8.525917921e-001   1.160070576e+002   5.436729881e-002  -1.089206373e+002
  1.600000000e+008  7.439144255e-002   1.530968909e+001   8.399616214e-001   8.161173501e+001   8.401257590e-001   8.160996433e+001   8.395601892e-002  -7.988213875e+001
  1.800000000e+008  1.312806685e-001  -1.485790450e+001   8.258265765e-001   4.744009115e+001   8.259621477e-001   4.743409601e+001   1.319972492e-001  -8.833314490e+001
  2.000000000e+008  1.553210212e-001  -4.757548943e+001   8.136316131e-001   1.354175081e+001   8.137216997e-001   1.353243919e+001   1.545481027e-001  -1.050663721e+002
  2.200000000e+008  1.338028713e-001  -7.993074445e+001   8.057719043e-001  -2.032398398e+001   8.058041395e-001  -2.033536614e+001   1.403709459e-001  -1.188538708e+002
  2.400000000e+008  6.695205451e-002  -1.063465208e+002   7.998091823e-001  -5.446471915e+001   7.997727288e-001  -5.447636116e+001   1.051963459e-001  -1.160325388e+002
  2.600000000e+008  3.996659927e-002  -4.765720419e+000   7.900258759e-001  -8.885543570e+001   7.899243098e-001  -8.886507983e+001   1.147307168e-001  -9.079882049e+001
  2.800000000e+008  1.389457721e-001  -1.967836880e+001   7.742630434e-001  -1.230458014e+002   7.741191561e-001  -1.230516316e+002   1.793613312e-001  -8.873700513e+001
  3.000000000e+008  2.113041124e-001  -5.086139136e+001   7.579894954e-001  -1.566397103e+002   7.578313878e-001  -1.566408265e+002   2.323016268e-001  -1.028644196e+002
  3.200000000e+008  2.325519458e-001  -8.288956817e+001   7.490108683e-001   1.701790856e+002   7.488637880e-001   1.701826005e+002   2.407425375e-001  -1.204056678e+002
  3.400000000e+008  1.928250606e-001  -1.140280783e+002   7.490434997e-001   1.367231327e+002   7.489256121e-001   1.367305053e+002   1.967654280e-001  -1.347275180e+002
  3.600000000e+008  9.749900051e-002  -1.375995074e+002   7.502286637e-001   1.024509505e+002   7.501571139e-001   1.024610821e+002   1.248769215e-001  -1.294111524e+002
  3.800000000e+008  5.528711233e-002  -5.461964322e+001   7.412079256e-001   6.767168019e+001   7.411926569e-001   6.768314213e+001   1.390976338e-001  -9.239803440e+001
  4.000000000e+008  1.701022038e-001  -6.113880550e+001   7.207640639e-001   3.340643005e+001   7.208095475e-001   3.341732029e+001   2.341329431e-001  -9.142439713e+001
  4.200000000e+008  2.470596470e-001  -9.079649149e+001   7.007602527e-001   2.570312096e-001   7.008554525e-001   2.653578953e-001   3.017661887e-001  -1.063085427e+002
  4.400000000e+008  2.612480554e-001  -1.227873562e+002   6.929016468e-001  -3.227026048e+001   6.930266766e-001  -3.226619169e+001   3.119587329e-001  -1.231247463e+002
  4.600000000e+008  2.076579678e-001  -1.563697007e+002   6.980376148e-001  -6.528439333e+001   6.981672734e-001  -6.528498336e+001   2.638963848e-001  -1.363475523e+002
  4.800000000e+008  9.469790872e-002   1.675210148e+002   7.048976082e-001  -9.949821132e+001   7.050120604e-001  -9.950290450e+001   1.877446369e-001  -1.348901722e+002
  5.000000000e+008  4.527194620e-002  -4.264799348e+001   6.994342387e-001  -1.344123935e+002   6.995167480e-001  -1.344203404e+002   1.806618398e-001  -1.109542507e+002
  5.200000000e+008  1.620803679e-001  -8.145070401e+001   6.814103942e-001  -1.687566778e+002   6.814487098e-001  -1.687668126e+002   2.546447137e-001  -1.051024319e+002
  5.400000000e+008  2.197073900e-001  -1.172657639e+002   6.642673034e-001   1.580094010e+002   6.642521495e-001   1.579983567e+002   3.100914413e-001  -1.142635249e+002
  5.600000000e+008  2.060083859e-001  -1.542300291e+002   6.580210816e-001   1.252016663e+002   6.579534353e-001   1.251919048e+002   3.151362651e-001  -1.250645826e+002
  5.800000000e+008  1.270039771e-001   1.608669243e+002   6.600896798e-001   9.178858210e+001   6.599801559e-001   9.178214629e+001   2.816376350e-001  -1.304748816e+002
  6.000000000e+008  5.307388334e-002   4.434377152e+001   6.589087532e-001   5.751309230e+001   6.587810159e-001   5.751088221e+001   2.566452230e-001  -1.258605371e+002
  6.200000000e+008  1.517756451e-001  -4.691826999e+001   6.475798416e-001   2.321739120e+001   6.474571173e-001   2.321946395e+001   2.808987297e-001  -1.204507128e+002
  6.400000000e+008  2.309986738e-001  -8.837572805e+001   6.331407448e-001  -1.025819686e+001   6.330370802e-001  -1.025238117e+001   3.170672313e-001  -1.239955879e+002
  6.600000000e+008  2.398584126e-001  -1.228614891e+002   6.264018234e-001  -4.319264966e+001   6.263304078e-001  -4.318379101e+001   3.184239840e-001  -1.315950361e+002
  6.800000000e+008  1.696317716e-001  -1.532628697e+002   6.282328061e-001  -7.663693585e+001   6.282040585e-001  -7.662615558e+001   2.793840177e-001  -1.351871576e+002
  7.000000000e+008  4.322822077e-002  -1.465779524e+002   6.271535244e-001  -1.111493416e+002   6.271767161e-001  -1.111384566e+002   2.483478104e-001  -1.262242440e+002
  7.200000000e+008  1.433216183e-001  -6.727776459e+001   6.118136229e-001  -1.458435959e+002   6.118813389e-001  -1.458348487e+002   2.932143957e-001  -1.159289603e+002
  7.400000000e+008  2.740270945e-001  -9.259575129e+001   5.881263165e-001  -1.792609877e+002   5.882178265e-001  -1.792561639e+002   3.675204451e-001  -1.198885919e+002
  7.600000000e+008  3.391835412e-001  -1.204670422e+002   5.727008479e-001   1.487933438e+002   5.727955023e-001   1.487940904e+002   4.026659186e-001  -1.311547289e+002
  7.800000000e+008  3.269639374e-001  -1.470189836e+002   5.747049048e-001   1.170345057e+002   5.747924697e-001   1.170316160e+002   3.756484203e-001  -1.432904763e+002
  8.000000000e+008  2.376050708e-001  -1.686910645e+002   5.885441826e-001   8.383015634e+001   5.886167383e-001   8.382409553e+001   2.910983967e-001  -1.493940806e+002
  8.200000000e+008  1.225480791e-001  -1.587186973e+002   5.949247618e-001   4.875519777e+001   5.949667544e-001   4.874641987e+001   2.209421130e-001  -1.336146389e+002
  8.400000000e+008  1.852911649e-001  -1.217506247e+002   5.794876879e-001   1.350659321e+001   5.794869777e-001   1.349645426e+001   2.844992584e-001  -1.147969073e+002
  8.600000000e+008  2.996770986e-001  -1.360278516e+002   5.535882688e-001  -1.991754338e+001   5.535434104e-001  -1.992668368e+001   3.831660523e-001  -1.193078547e+002
  8.800000000e+008  3.494026980e-001  -1.600848143e+002   5.379438791e-001  -5.152188679e+001   5.378700326e-001  -5.152797821e+001   4.287740719e-001  -1.312949900e+002
  9.000000000e+008  3.222135473e-001   1.740431242e+002   5.412644540e-001  -8.292510443e+001   5.411793506e-001  -8.292776979e+001   4.084238836e-001  -1.433925553e+002
  9.200000000e+008  2.203233643e-001   1.492943722e+002   5.569657817e-001  -1.158418147e+002   5.568764129e-001  -1.158414035e+002   3.340208045e-001  -1.501575040e+002
  9.400000000e+008  7.920670944e-002   1.507684848e+002   5.672448793e-001  -1.506184903e+002   5.671588922e-001  -1.506151517e+002   2.645295110e-001  -1.419644012e+002
  9.600000000e+008  1.250991212e-001  -1.406995721e+002   5.600201374e-001   1.742649105e+002   5.599491657e-001   1.742713078e+002   2.874567231e-001  -1.273104182e+002
  9.800000000e+008  2.203764267e-001  -1.592208632e+002   5.439209284e-001   1.404015884e+002   5.438795385e-001   1.404106156e+002   3.512518199e-001  -1.270530558e+002
  1.000000000e+009  2.392190837e-001   1.723706292e+002   5.340366439e-001   1.076746048e+002   5.340358512e-001   1.076846408e+002   3.808246865e-001  -1.338347140e+002
  1.020000000e+009  1.778850421e-001   1.402151220e+002   5.343382508e-001   7.483132520e+001   5.343781036e-001   7.483971977e+001   3.668210358e-001  -1.396411689e+002
  1.040000000e+009  5.549280701e-002   9.358548397e+001   5.367166361e-001   4.104858771e+001   5.367804409e-001   4.105360414e+001   3.388657763e-001  -1.398950135e+002
  1.060000000e+009  9.611178255e-002  -8.501059716e+001   5.318831595e-001   6.821018595e+000   5.319511205e-001   6.822573312e+000   3.387728969e-001  -1.366111796e+002
  1.080000000e+009  2.069537020e-001  -1.223000634e+002   5.217023074e-001  -2.681079346e+001   5.217639027e-001  -2.681181969e+001   3.601176700e-001  -1.373237267e+002
  1.100000000e+009  2.498995069e-001  -1.516972920e+002   5.156042625e-001  -5.974082349e+001   5.156591784e-001  -5.974415399e+001   3.613911591e-001  -1.421816073e+002
  1.120000000e+009  2.141597169e-001  -1.751961980e+002   5.173806095e-001  -9.294677242e+001   5.174234249e-001  -9.295297147e+001   3.251136558e-001  -1.455091060e+002
  1.140000000e+009  1.252727154e-001  -1.766559195e+002   5.191549856e-001  -1.272814086e+002   5.191661675e-001  -1.272899181e+002   2.827211279e-001  -1.393615466e+002
  1.160000000e+009  1.456559302e-001  -1.335597497e+002   5.091672727e-001  -1.621418272e+002   5.091389566e-001  -1.621501396e+002   3.056836015e-001  -1.276288887e+002
  1.180000000e+009  2.675805752e-001  -1.388617016e+002   4.888229077e-001   1.641007561e+002   4.887674188e-001   1.640951532e+002   3.768480268e-001  -1.273915716e+002
  1.200000000e+009  3.495188542e-001  -1.590132539e+002   4.722326104e-001   1.320817890e+002   4.721718091e-001   1.320794727e+002   4.221120754e-001  -1.359903289e+002
  1.220000000e+009  3.646824850e-001   1.797770988e+002   4.699433099e-001   1.007587320e+002   4.698861013e-001   1.007585600e+002   4.100670010e-001  -1.468722511e+002
  1.240000000e+009  3.128885987e-001   1.619535989e+002   4.808537411e-001   6.839521405e+001   4.807974282e-001   6.839676348e+001   3.382723541e-001  -1.546967266e+002
  1.260000000e+009  2.265869611e-001   1.579202364e+002   4.916819227e-001   3.404227852e+001   4.916263744e-001   3.404582179e+001   2.478536891e-001  -1.476722343e+002
  1.280000000e+009  2.180244981e-001   1.744171024e+002   4.869915127e-001  -1.242318838e+000   4.869499734e-001  -1.236268545e+000   2.594878873e-001  -1.249202563e+002
  1.300000000e+009  2.970156286e-001   1.732683278e+002   4.688383100e-001  -3.532172086e+001   4.688233803e-001  -3.531449532e+001   3.529862012e-001  -1.215790487e+002
  1.320000000e+009  3.508883913e-001   1.568899023e+002   4.534760963e-001  -6.748920965e+001   4.534892549e-001  -6.748265017e+001   4.149285898e-001  -1.303704927e+002
  1.340000000e+009  3.429828913e-001   1.363611474e+002   4.515471971e-001  -9.889130218e+001   4.515784933e-001  -9.888683713e+001   4.161633802e-001  -1.411278177e+002
  1.360000000e+009  2.717031142e-001   1.164152427e+002   4.618072273e-001  -1.311707913e+002   4.618443319e-001  -1.311689507e+002   3.628846876e-001  -1.489134457e+002
  1.380000000e+009  1.617020630e-001   1.078942823e+002   4.736460825e-001  -1.651389212e+002   4.736818259e-001  -1.651388226e+002   2.900586499e-001  -1.469335659e+002
  1.400000000e+009  1.169021683e-001   1.387360176e+002   4.755981546e-001   1.599315090e+002   4.756289169e-001   1.599299560e+002   2.708705702e-001  -1.334489245e+002
  1.420000000e+009  1.762331868e-001   1.454910184e+002   4.677616760e-001   1.254792269e+002   4.677874077e-001   1.254758996e+002   3.147247169e-001  -1.263999981e+002
  1.440000000e+009  2.017084149e-001   1.257953260e+002   4.594218969e-001   9.196851211e+001   4.594325633e-001   9.196298099e+001   3.534626458e-001  -1.285647053e+002
  1.460000000e+009  1.597970072e-001   9.878490701e+001   4.558631246e-001   5.874875231e+001   4.558497529e-001   5.874252969e+001   3.613348441e-001  -1.323835411e+002
  1.480000000e+009  6.205981852e-002   6.433977510e+001   4.547236610e-001   2.516981168e+001   4.546862675e-001   2.516488269e+001   3.525466219e-001  -1.337929561e+002
  1.500000000e+009  6.038699040e-002  -1.253178970e+002   4.515512370e-001  -8.690232530e+000   4.515027231e-001  -8.692719916e+000   3.501117299e-001  -1.332353095e+002
  1.520000000e+009  1.590838035e-001  -1.597378086e+002   4.463551738e-001  -4.233336554e+001   4.463079618e-001  -4.233366086e+001   3.544025517e-001  -1.339411914e+002
  1.540000000e+009  2.040967291e-001   1.737414016e+002   4.431779428e-001  -7.570932630e+001   4.431336222e-001  -7.570837117e+001   3.446845049e-001  -1.361524573e+002
  1.560000000e+009  1.851637213e-001   1.546622603e+002   4.432334663e-001  -1.094250431e+002   4.431923329e-001  -1.094225612e+002   3.134231143e-001  -1.356801937e+002
  1.580000000e+009  1.354832298e-001   1.578639110e+002   4.411878959e-001  -1.439051769e+002   4.411548846e-001  -1.439012072e+002   2.922510805e-001  -1.276841348e+002
  1.600000000e+009  1.677546798e-001  -1.788654533e+002   4.308542510e-001  -1.785394139e+002   4.308359777e-001  -1.785343476e+002   3.261372026e-001  -1.187199744e+002
  1.620000000e+009  2.633463147e-001   1.755534266e+002   4.145993255e-001   1.478547516e+002   4.145982684e-001   1.478595699e+002   3.891278192e-001  -1.191131433e+002
  1.640000000e+009  3.319238305e-001   1.577300187e+002   4.018529013e-001   1.156469003e+002   4.018625919e-001   1.156505261e+002   4.269147908e-001  -1.259643385e+002
  1.660000000e+009  3.466088924e-001   1.383718377e+002   3.993676846e-001   8.394413355e+001   3.993828114e-001   8.394607530e+001   4.156239699e-001  -1.341204702e+002
  1.680000000e+009  3.072940708e-001   1.223245291e+002   4.059649289e-001   5.134061948e+001   4.059799890e-001   5.134130510e+001   3.569926633e-001  -1.386518312e+002
  1.700000000e+009  2.452442946e-001   1.174820991e+002   4.123470299e-001   1.708283120e+001   4.123615396e-001   1.708238355e+001   2.921172361e-001  -1.314792447e+002
  1.720000000e+009  2.400378033e-001   1.252626578e+002   4.078712449e-001  -1.799351835e+001   4.078821410e-001  -1.799525422e+001   3.075116944e-001  -1.155290323e+002
  1.740000000e+009  2.980168521e-001   1.219277626e+002   3.933386219e-001  -5.212196987e+001   3.933425210e-001  -5.212504421e+001   3.875941098e-001  -1.117772278e+002
  1.760000000e+009  3.403400063e-001   1.063100354e+002   3.797723418e-001  -8.456901528e+001   3.797649587e-001  -8.457282850e+001   4.486184784e-001  -1.174276021e+002
  1.780000000e+009  3.328457129e-001   8.637328224e+001   3.755314085e-001  -1.161432109e+002   3.755121439e-001  -1.161466437e+002   4.615189114e-001  -1.250875407e+002
  1.800000000e+009  2.733265448e-001   6.646301476e+001   3.811861211e-001  -1.482560484e+002   3.811594940e-001  -1.482583621e+002   4.295130153e-001  -1.307039311e+002
  1.820000000e+009  1.800169978e-001   5.420002059e+001   3.902611275e-001   1.781355903e+002   3.902291814e-001   1.781342381e+002   3.775680002e-001  -1.302821969e+002
  1.840000000e+009  1.207346752e-001   6.939643557e+001   3.935712555e-001   1.433024064e+002   3.935363963e-001   1.433021480e+002   3.556696188e-001  -1.226124818e+002
  1.860000000e+009  1.533991387e-001   7.969590776e+001   3.878702637e-001   1.084604286e+002   3.878357651e-001   1.084615869e+002   3.865883477e-001  -1.159761001e+002
  1.880000000e+009  1.800122928e-001   6.084461791e+001   3.780898506e-001   7.447774348e+001   3.780605668e-001   7.448014406e+001   4.329258689e-001  -1.153648261e+002
  1.900000000e+009  1.570103589e-001   2.950011649e+001   3.700987205e-001   4.125653028e+001   3.700779313e-001   4.125974731e+001   4.635968985e-001  -1.178510413e+002
  1.920000000e+009  9.737767335e-002  -1.778512730e+001   3.656590449e-001   8.226869655e+000   3.656463592e-001   8.230120230e+000   4.752248694e-001  -1.206099636e+002
  1.940000000e+009  6.764474015e-002  -1.121974285e+002   3.633873726e-001  -2.498227265e+001   3.633791796e-001  -2.497940376e+001   4.755190994e-001  -1.226360158e+002
  1.960000000e+009  1.157915499e-001   1.763467021e+002   3.620108889e-001  -5.841399309e+001   3.620066450e-001  -5.841155146e+001   4.693074052e-001  -1.239232777e+002
  1.980000000e+009  1.456706995e-001   1.374475418e+002   3.612923856e-001  -9.213575242e+001   3.612928531e-001  -9.213379418e+001   4.567355846e-001  -1.241506946e+002
  2.000000000e+009  1.247431862e-001   1.125775542e+002   3.599655124e-001  -1.263570337e+002   3.599685792e-001  -1.263559186e+002   4.438487684e-001  -1.222702661e+002
  2.020000000e+009  8.051868609e-002   1.223824054e+002   3.547317684e-001  -1.610351930e+002   3.547348338e-001  -1.610349097e+002   4.491347908e-001  -1.183647484e+002
  2.040000000e+009  1.309806151e-001   1.515007748e+002   3.433614925e-001   1.644957374e+002   3.433623740e-001   1.644948843e+002   4.840898028e-001  -1.156113634e+002
  2.060000000e+009  2.266140862e-001   1.383421772e+002   3.288074223e-001   1.311292331e+002   3.288039525e-001   1.311279958e+002   5.303580529e-001  -1.166076702e+002
  2.080000000e+009  2.943644926e-001   1.157906426e+002   3.175487445e-001   9.906927888e+001   3.175422468e-001   9.906773376e+001   5.600439357e-001  -1.204126987e+002
  2.100000000e+009  3.148799808e-001   9.270566314e+001   3.141858190e-001   6.751981272e+001   3.141756910e-001   6.751810004e+001   5.588142981e-001  -1.248272891e+002
  2.120000000e+009  2.854923236e-001   7.252464971e+001   3.183238826e-001   3.517779892e+001   3.183095642e-001   3.517609549e+001   5.276969772e-001  -1.274589291e+002
  2.140000000e+009  2.242258283e-001   6.217866596e+001   3.236189300e-001   1.129760631e+000   3.236006007e-001   1.128459458e+000   4.893585870e-001  -1.255952904e+002
  2.160000000e+009  2.010603458e-001   6.932101608e+001   3.208367931e-001  -3.412823173e+001   3.208163512e-001  -3.412903160e+001   4.890014907e-001  -1.198049343e+002
  2.180000000e+009  2.564312312e-001   6.928929658e+001   3.077602112e-001  -6.877374955e+001   3.077388984e-001  -6.877394127e+001   5.370539926e-001  -1.166152687e+002
  2.200000000e+009  3.148343458e-001   5.355649373e+001   2.924632735e-001  -1.015146145e+002   2.924428187e-001  -1.015144522e+002   5.902354903e-001  -1.183316430e+002
  2.220000000e+009  3.336540971e-001   3.215005052e+001   2.834657644e-001  -1.327311545e+002   2.834457612e-001  -1.327305815e+002   6.175498288e-001  -1.223632555e+002
  2.240000000e+009  3.065884748e-001   9.442187362e+000   2.836162048e-001  -1.637954072e+002   2.835973832e-001  -1.637943021e+002   6.132755424e-001  -1.263695574e+002
  2.260000000e+009  2.382704560e-001  -1.113562291e+001   2.904358756e-001   1.639108627e+002   2.904182771e-001   1.639126427e+002   5.847600209e-001  -1.285204973e+002
  2.280000000e+009  1.545945611e-001  -1.904377734e+001   2.970833726e-001   1.297874241e+002   2.970683816e-001   1.297891867e+002   5.544362712e-001  -1.272810782e+002
  2.300000000e+009  1.331799892e-001  -3.160326835e+000   2.961785259e-001   9.461065043e+001   2.961656673e-001   9.461234992e+001   5.538419793e-001  -1.236865290e+002
  2.320000000e+009  1.783571581e-001  -7.543883954e+000   2.871767952e-001   5.997000736e+001   2.871647186e-001   5.997151978e+001   5.859036192e-001  -1.216009109e+002
