! Created Sun Jun 24 21:01:46 2012
# hz S ma R 100
! 2 Port Network Data from SP1.SP block
! freq  magS11  angS11  magS21  angS21  magS12  angS12  magS22  angS22  
!     
  0.000000000e+007  0  0  1  0  1  0  0  0
  2.000000000e+007  6.586113396e-002  -5.958734749e+000   9.533378073e-001  -2.575259789e+001   9.531539018e-001  -2.574793649e+001   4.929410118e-002   1.231493472e+002
  4.000000000e+007  6.036982019e-002  -1.576212063e+001   9.387032218e-001  -5.043301628e+001   9.385670396e-001  -5.042444300e+001   4.166888969e-002   5.956790050e+001
  6.000000000e+007  5.523302823e-002  -1.256203420e+001   9.274562157e-001  -7.492951723e+001   9.273870734e-001  -7.491846308e+001   5.797645304e-002   3.710530283e-001
  8.000000000e+007  6.673192341e-002  -7.814001276e+000   9.165042582e-001  -9.933053346e+001   9.165109983e-001  -9.931880106e+001   8.800162283e-002  -3.707614744e+001
  1.000000000e+008  8.849316090e-002  -1.674265962e+001   9.054060787e-001  -1.236006981e+002   9.054870621e-001  -1.235902126e+002   1.177113233e-001  -6.352294450e+001
  1.200000000e+008  1.065035226e-001  -3.517748338e+001   8.948557760e-001  -1.477208665e+002   8.949946908e-001  -1.477133695e+002   1.389169253e-001  -8.478449274e+001
  1.400000000e+008  1.119006529e-001  -5.843098596e+001   8.858362721e-001  -1.717211987e+002   8.860092223e-001  -1.717180089e+002   1.465880228e-001  -1.025660202e+002
  1.600000000e+008  1.001405346e-001  -8.501918022e+001   8.788689450e-001   1.643181911e+002   8.790462649e-001   1.643164835e+002   1.386171300e-001  -1.166323534e+002
  1.800000000e+008  7.045770648e-002  -1.167045651e+002   8.734913852e-001   1.403006280e+002   8.736390096e-001   1.402942689e+002   1.171934472e-001  -1.245589573e+002
  2.000000000e+008  2.988820217e-002  -1.744439066e+002   8.682341288e-001   1.161685844e+002   8.683270448e-001   1.161587795e+002   9.323686154e-002  -1.200593938e+002
  2.200000000e+008  4.567865606e-002   5.964574912e+001   8.613263415e-001   9.195180869e+001   8.613521571e-001   9.194036366e+001   9.179020378e-002  -1.014080099e+002
  2.400000000e+008  1.025363273e-001   1.555608713e+001   8.518653646e-001   6.776710400e+001   8.518216890e-001   6.775593341e+001   1.229268280e-001  -9.082962880e+001
  2.600000000e+008  1.538236838e-001  -1.554187597e+001   8.406453210e-001   4.375264685e+001   8.405411003e-001   4.374348679e+001   1.634532956e-001  -9.390147113e+001
  2.800000000e+008  1.879380406e-001  -4.377461796e+001   8.298846237e-001   1.997205094e+001   8.297383469e-001   1.996619850e+001   1.942145635e-001  -1.029305170e+002
  3.000000000e+008  1.974993693e-001  -7.095748594e+001   8.219170605e-001  -3.644927510e+000   8.217492492e-001  -3.646562279e+000   2.057232076e-001  -1.133834926e+002
  3.200000000e+008  1.782124207e-001  -9.794808700e+001   8.176894125e-001  -2.728300934e+001   8.175242828e-001  -2.728000749e+001   1.949970402e-001  -1.222888819e+002
  3.400000000e+008  1.290342776e-001  -1.257640370e+002   8.158684229e-001  -5.114744879e+001   8.157315578e-001  -5.114010556e+001   1.667799970e-001  -1.256113733e+002
  3.600000000e+008  5.369910650e-002  -1.593017188e+002   8.130206524e-001  -7.533076577e+001   8.129384616e-001  -7.532021796e+001   1.411728726e-001  -1.168998645e+002
  3.800000000e+008  4.254433932e-002   2.150243152e+001   8.053818041e-001  -9.970844898e+001   8.053671827e-001  -9.969659045e+001   1.543021153e-001  -1.000889850e+002
  4.000000000e+008  1.381257204e-001  -1.528111580e+001   7.915972719e-001  -1.239624545e+002   7.916514223e-001  -1.239515488e+002   2.076305758e-001  -9.444561822e+001
  4.200000000e+008  2.219476274e-001  -4.258970887e+001   7.742948975e-001  -1.477643893e+002   7.744006037e-001  -1.477562983e+002   2.675528635e-001  -9.996279169e+001
  4.400000000e+008  2.810168752e-001  -6.798158641e+001   7.586975719e-001  -1.709935613e+002   7.588314896e-001  -1.709895603e+002   3.108789247e-001  -1.103219600e+002
  4.600000000e+008  3.078568277e-001  -9.233571833e+001   7.496593313e-001   1.661745862e+002   7.497967746e-001   1.661741647e+002   3.266737499e-001  -1.222617826e+002
  4.800000000e+008  2.982175420e-001  -1.161177825e+002   7.493610848e-001   1.433366464e+002   7.494832572e-001   1.433321026e+002   3.102812012e-001  -1.340318234e+002
  5.000000000e+008  2.496183538e-001  -1.394697270e+002   7.561347498e-001   1.200247682e+002   7.562245571e-001   1.200168709e+002   2.615093843e-001  -1.434580192e+002
  5.200000000e+008  1.631063793e-001  -1.610748516e+002   7.641504928e-001   9.592963567e+001   7.641934354e-001   9.591960000e+001   1.906191744e-001  -1.445188885e+002
  5.400000000e+008  5.200868846e-002  -1.627955988e+002   7.651814776e-001   7.114069763e+001   7.651662971e-001   7.112984324e+001   1.441896173e-001  -1.228482039e+002
  5.600000000e+008  9.106350090e-002  -6.245011780e+001   7.537602038e-001   4.621555415e+001   7.536882763e-001   4.620571527e+001   1.915946652e-001  -9.830187081e+001
  5.800000000e+008  2.050130872e-001  -7.722673616e+001   7.320975756e-001   2.187707830e+001   7.319786927e-001   2.187009174e+001   2.811103710e-001  -9.769954585e+001
  6.000000000e+008  2.914542015e-001  -9.915800386e+001   7.085553834e-001  -1.464750373e+000   7.084124911e-001  -1.467509749e+000   3.558724897e-001  -1.066741958e+002
  6.200000000e+008  3.409009327e-001  -1.217830630e+002   6.916694449e-001  -2.392081934e+001   6.915288473e-001  -2.391859954e+001   3.986727222e-001  -1.181382014e+002
  6.400000000e+008  3.510629230e-001  -1.446691981e+002   6.862564313e-001  -4.599330296e+001   6.861414224e-001  -4.598660955e+001   4.058723998e-001  -1.298258288e+002
  6.600000000e+008  3.209521993e-001  -1.683081894e+002   6.926216930e-001  -6.833934203e+001   6.925530204e-001  -6.832982777e+001   3.776685960e-001  -1.405128334e+002
  6.800000000e+008  2.501548278e-001   1.665322267e+002   7.065012250e-001  -9.153480727e+001   7.064835621e-001  -9.152457009e+001   3.180050425e-001  -1.480999971e+002
  7.000000000e+008  1.431444539e-001   1.383854728e+002   7.194078592e-001  -1.158043537e+002   7.194377726e-001  -1.157949689e+002   2.445007267e-001  -1.472363466e+002
  7.200000000e+008  2.001865564e-002   7.106158495e+001   7.221145120e-001  -1.407981029e+002   7.221810767e-001  -1.407905965e+002   2.065061878e-001  -1.313754905e+002
  7.400000000e+008  1.122210442e-001  -8.146417748e+001   7.114184273e-001  -1.657223635e+002   7.115097947e-001  -1.657175816e+002   2.441785294e-001  -1.159408385e+002
  7.600000000e+008  2.096492047e-001  -1.110425245e+002   6.928933874e-001   1.701160101e+002   6.929972548e-001   1.701176568e+002   3.113812204e-001  -1.146640395e+002
  7.800000000e+008  2.675484374e-001  -1.375456481e+002   6.756462160e-001   1.468694057e+002   6.757494770e-001   1.468673217e+002   3.626380112e-001  -1.205331411e+002
  8.000000000e+008  2.823915438e-001  -1.636911383e+002   6.660194802e-001   1.241757540e+002   6.661048054e-001   1.241699153e+002   3.842331100e-001  -1.282304712e+002
  8.200000000e+008  2.552101249e-001   1.686365804e+002   6.653900161e-001   1.014496756e+002   6.654374247e-001   1.014408220e+002   3.765356347e-001  -1.351606490e+002
  8.400000000e+008  1.909729513e-001   1.359301543e+002   6.705004298e-001   7.818248062e+001   6.704983089e-001   7.817229096e+001   3.479713239e-001  -1.392120590e+002
  8.600000000e+008  1.097369891e-001   8.495765180e+001   6.748847598e-001   5.420478806e+001   6.748286118e-001   5.419547604e+001   3.174918341e-001  -1.383917307e+002
  8.800000000e+008  9.965000280e-002  -9.546704361e+000   6.725218442e-001   2.982629959e+001   6.724233950e-001   2.981986758e+001   3.101797653e-001  -1.337128951e+002
  9.000000000e+008  1.812251303e-001  -6.693543382e+001   6.625445940e-001   5.641200011e+000   6.624281768e-001   5.638652599e+000   3.318295709e-001  -1.307184916e+002
  9.200000000e+008  2.550799473e-001  -1.007301740e+002   6.498965984e-001  -1.792825074e+001   6.497819753e-001  -1.792683704e+001   3.608908277e-001  -1.324401350e+002
  9.400000000e+008  2.931253214e-001  -1.279424147e+002   6.410382417e-001  -4.092545875e+001   6.409409794e-001  -4.092070288e+001   3.746999669e-001  -1.374053315e+002
  9.600000000e+008  2.874455225e-001  -1.523337070e+002   6.396346136e-001  -6.379492261e+001   6.395633292e-001  -6.378763967e+001   3.623090627e-001  -1.431198237e+002
  9.800000000e+008  2.353447135e-001  -1.747581786e+002   6.446972269e-001  -8.711459951e+001   6.446578612e-001  -8.710569941e+001   3.238446194e-001  -1.466683010e+002
  1.000000000e+009  1.397687239e-001   1.678378079e+002   6.504588273e-001  -1.112693778e+002   6.504576378e-001  -1.112598180e+002   2.755990027e-001  -1.435630942e+002
  1.020000000e+009  4.270422245e-002  -1.459311835e+002   6.486057941e-001  -1.361276309e+002   6.486479770e-001  -1.361189927e+002   2.595120009e-001  -1.313704257e+002
  1.040000000e+009  1.479434732e-001  -9.664468732e+001   6.343913045e-001  -1.609680906e+002   6.344675207e-001  -1.609621107e+002   3.043934950e-001  -1.214013813e+002
  1.060000000e+009  2.695228890e-001  -1.125648410e+002   6.116495149e-001   1.750615127e+002   6.117397546e-001   1.750635945e+002   3.753687715e-001  -1.217680093e+002
  1.080000000e+009  3.577253732e-001  -1.321732730e+002   5.896687235e-001   1.523266083e+002   5.897501697e-001   1.523246700e+002   4.319691180e-001  -1.284053668e+002
  1.100000000e+009  4.053815196e-001  -1.515595641e+002   5.764676594e-001   1.305463844e+002   5.765245680e-001   1.305414306e+002   4.574645565e-001  -1.375235553e+002
  1.120000000e+009  4.116215277e-001  -1.701925647e+002   5.758224008e-001   1.090283925e+002   5.758510788e-001   1.090219252e+002   4.468254166e-001  -1.473689436e+002
  1.140000000e+009  3.757665821e-001   1.722805143e+002   5.871427245e-001   8.694774503e+001   5.871437682e-001   8.694092372e+001   3.978625893e-001  -1.566587002e+002
  1.160000000e+009  2.989706914e-001   1.577921175e+002   6.050070879e-001   6.361324411e+001   6.049841234e-001   6.360667082e+001   3.129530226e-001  -1.624313632e+002
  1.180000000e+009  1.996432742e-001   1.547934363e+002   6.189548822e-001   3.884320673e+001   6.189051984e-001   3.883735391e+001   2.184423512e-001  -1.551512635e+002
  1.200000000e+009  1.590687276e-001  -1.795515009e+002   6.182887907e-001   1.329909086e+001   6.182138485e-001   1.329489716e+001   2.024068581e-001  -1.267299031e+002
  1.220000000e+009  2.350846363e-001  -1.653867726e+002   6.014793623e-001  -1.179846826e+001   6.013890045e-001  -1.179991827e+001   2.881247638e-001  -1.134739348e+002
  1.240000000e+009  3.259451586e-001  -1.742284567e+002   5.777409707e-001  -3.556138209e+001   5.776522885e-001  -3.555914774e+001   3.805248242e-001  -1.172344753e+002
  1.260000000e+009  3.847018118e-001   1.703056740e+002   5.582185885e-001  -5.793969088e+001   5.581477467e-001  -5.793416253e+001   4.400548552e-001  -1.260270219e+002
  1.280000000e+009  4.039824455e-001   1.529139559e+002   5.495451044e-001  -7.951003920e+001   5.495055387e-001  -7.950229288e+001   4.609990546e-001  -1.358726229e+002
  1.300000000e+009  3.837670700e-001   1.346631083e+002   5.533879366e-001  -1.010886534e+002   5.533827762e-001  -1.010809112e+002   4.447805783e-001  -1.453959826e+002
  1.320000000e+009  3.242680048e-001   1.160648005e+002   5.672518271e-001  -1.234483343e+002   5.672761965e-001  -1.234420791e+002   3.943394786e-001  -1.532838386e+002
  1.340000000e+009  2.289614456e-001   9.903736391e+001   5.846488521e-001  -1.470502854e+002   5.846913496e-001  -1.470461505e+002   3.195848598e-001  -1.565446733e+002
  1.360000000e+009  1.162681029e-001   9.443158853e+001   5.967439404e-001  -1.717761732e+002   5.967923374e-001  -1.717744330e+002   2.514352345e-001  -1.493809767e+002
  1.380000000e+009  7.860865875e-002   1.498969070e+002   5.975466760e-001   1.630780633e+002   5.975927360e-001   1.630779996e+002   2.403445705e-001  -1.327026857e+002
  1.400000000e+009  1.576884365e-001   1.622444585e+002   5.885056485e-001   1.383371214e+002   5.885415964e-001   1.383352472e+002   2.854871990e-001  -1.230470858e+002
  1.420000000e+009  2.185438758e-001   1.462761397e+002   5.762943731e-001   1.143956603e+002   5.763195147e-001   1.143923927e+002   3.369454836e-001  -1.230611453e+002
  1.440000000e+009  2.382223057e-001   1.247225869e+002   5.670806096e-001   9.110051043e+001   5.670901858e-001   9.109572816e+001   3.682772093e-001  -1.269611228e+002
  1.460000000e+009  2.166818041e-001   9.984206677e+001   5.633187283e-001   6.799383738e+001   5.633070399e-001   6.798825396e+001   3.758439205e-001  -1.311819476e+002
  1.480000000e+009  1.605986189e-001   6.927248717e+001   5.636008060e-001   4.463753268e+001   5.635607522e-001   4.463226853e+001   3.668815236e-001  -1.337823459e+002
  1.500000000e+009  9.010391547e-002   1.964631427e+001   5.642389859e-001   2.086805851e+001   5.641745407e-001   2.086467238e+001   3.547867294e-001  -1.339554714e+002
  1.520000000e+009  8.327272218e-002  -7.455038305e+001   5.620695609e-001  -3.130370725e+000   5.619954730e-001  -3.130765551e+000   3.519539796e-001  -1.326882312e+002
  1.540000000e+009  1.519349063e-001  -1.290318505e+002   5.569216155e-001  -2.701460866e+001   5.568533010e-001  -2.701228185e+001   3.589826629e-001  -1.322094180e+002
  1.560000000e+009  2.109905288e-001  -1.606985007e+002   5.514634028e-001  -5.059406616e+001   5.514126670e-001  -5.058963898e+001   3.645769302e-001  -1.335970814e+002
  1.580000000e+009  2.366406747e-001   1.741580746e+002   5.486788141e-001  -7.399056815e+001   5.486481534e-001  -7.398539904e+001   3.567913601e-001  -1.359943708e+002
  1.600000000e+009  2.219714347e-001   1.529261631e+002   5.494687398e-001  -9.755409435e+001   5.494547652e-001  -9.754882932e+001   3.312444951e-001  -1.372880387e+002
  1.620000000e+009  1.687309555e-001   1.379336248e+002   5.515899371e-001  -1.216344027e+002   5.515912469e-001  -1.216295846e+002   2.963900823e-001  -1.343039107e+002
  1.640000000e+009  1.006517240e-001   1.456465811e+002   5.502228328e-001  -1.463050208e+002   5.502365913e-001  -1.463008955e+002   2.792986332e-001  -1.248199305e+002
  1.660000000e+009  1.182369978e-001  -1.722208698e+002   5.409797295e-001  -1.711779982e+002   5.410055079e-001  -1.711752613e+002   3.081945149e-001  -1.144933072e+002
  1.680000000e+009  2.150147631e-001  -1.704351792e+002   5.240292851e-001   1.644342630e+002   5.240589360e-001   1.644352759e+002   3.705442799e-001  -1.113078377e+002
  1.700000000e+009  3.059515652e-001   1.753282294e+002   5.046268357e-001   1.410511604e+002   5.046527618e-001   1.410502069e+002   4.317950303e-001  -1.145142054e+002
  1.720000000e+009  3.681268625e-001   1.579818583e+002   4.892980973e-001   1.186901248e+002   4.893116270e-001   1.186876086e+002   4.706331567e-001  -1.207644841e+002
  1.740000000e+009  3.957371592e-001   1.402978160e+002   4.824300019e-001   9.690669550e+001   4.824298467e-001   9.690347621e+001   4.792823417e-001  -1.279623023e+002
  1.760000000e+009  3.872674954e-001   1.231689774e+002   4.853038873e-001   7.500551550e+001   4.852911130e-001   7.500235188e+001   4.555981674e-001  -1.347779704e+002
  1.780000000e+009  3.427075405e-001   1.077553745e+002   4.958487003e-001   5.226380799e+001   4.958254052e-001   5.226123782e+001   4.010884603e-001  -1.394112814e+002
  1.800000000e+009  2.693143996e-001   9.766278583e+001   5.081369814e-001   2.820970858e+001   5.081074491e-001   2.820799728e+001   3.291662525e-001  -1.379088132e+002
  1.820000000e+009  2.021100426e-001   1.020739265e+002   5.134908850e-001   2.975716685e+000   5.134562806e-001   2.974640009e+000   2.840807233e-001  -1.251145751e+002
  1.840000000e+009  2.112631944e-001   1.182436398e+002   5.058473245e-001  -2.257850276e+001   5.058102429e-001  -2.257880566e+001   3.173114198e-001  -1.096357593e+002
  1.860000000e+009  2.839863059e-001   1.188194833e+002   4.873235042e-001  -4.735805072e+001   4.872865459e-001  -4.735731278e+001   3.993284450e-001  -1.051655761e+002
  1.880000000e+009  3.533655190e-001   1.070029462e+002   4.660899412e-001  -7.076560142e+001   4.660566578e-001  -7.076384447e+001   4.755717396e-001  -1.083707576e+002
  1.900000000e+009  3.939342383e-001   9.069272766e+001   4.497856529e-001  -9.292784429e+001   4.497599350e-001  -9.292508192e+001   5.244742423e-001  -1.142753888e+002
  1.920000000e+009  4.013465105e-001   7.259857499e+001   4.423760977e-001  -1.144331907e+002   4.423608048e-001  -1.144300334e+002   5.431584339e-001  -1.206384861e+002
  1.940000000e+009  3.756622718e-001   5.348470515e+001   4.444875700e-001  -1.360165050e+002   4.444806233e-001  -1.360138222e+002   5.338868977e-001  -1.264025377e+002
  1.960000000e+009  3.173093697e-001   3.385534691e+001   4.541501924e-001  -1.583455711e+002   4.541481458e-001  -1.583439247e+002   5.007710437e-001  -1.305889769e+002
  1.980000000e+009  2.295713169e-001   1.542849241e+001   4.669882225e-001   1.781545583e+002   4.669862996e-001   1.781552266e+002   4.530586954e-001  -1.316991010e+002
  2.000000000e+009  1.268980872e-001   6.646020199e+000   4.768296268e-001   1.534816914e+002   4.768227287e-001   1.534817860e+002   4.112456494e-001  -1.280876409e+002
  2.020000000e+009  7.529696800e-002   4.663077813e+001   4.782142217e-001   1.281394194e+002   4.782027427e-001   1.281396026e+002   4.026588036e-001  -1.208247453e+002
  2.040000000e+009  1.399686031e-001   6.527121507e+001   4.700534465e-001   1.029196658e+002   4.700404411e-001   1.029196933e+002   4.337941337e-001  -1.149423486e+002
  2.060000000e+009  2.043824218e-001   4.834147048e+001   4.561632360e-001   7.842793408e+001   4.561488601e-001   7.842818412e+001   4.825317427e-001  -1.132001989e+002
  2.080000000e+009  2.384334123e-001   2.360857085e+001   4.417165717e-001   5.480537000e+001   4.417027518e-001   5.480555267e+001   5.270382998e-001  -1.144585036e+002
  2.100000000e+009  2.431965639e-001  -4.961775245e+000   4.301325199e-001   3.183425106e+001   4.301172909e-001   3.183431225e+001   5.585288551e-001  -1.170393255e+002
  2.120000000e+009  2.269675698e-001  -3.754693236e+001   4.225707442e-001   9.181535105e+000   4.225530881e-001   9.181687063e+000   5.763616721e-001  -1.199304510e+002
  2.140000000e+009  2.019711365e-001  -7.535186262e+001   4.187928116e-001  -1.343959249e+001   4.187745287e-001  -1.343895916e+001   5.826570933e-001  -1.226283241e+002
  2.160000000e+009  1.823413660e-001  -1.186195311e+002   4.180346784e-001  -3.622938400e+001   4.180184112e-001  -3.622853056e+001   5.799569989e-001  -1.248654214e+002
  2.180000000e+009  1.762879875e-001  -1.640268035e+002   4.193567360e-001  -5.932244342e+001   4.193411574e-001  -5.932163869e+001   5.707785191e-001  -1.264580191e+002
  2.200000000e+009  1.771200800e-001   1.533236430e+002   4.217284440e-001  -8.280268262e+001   4.217126380e-001  -8.280217736e+001   5.576541893e-001  -1.272443444e+002
  2.220000000e+009  1.689053467e-001   1.148791685e+002   4.240193410e-001  -1.067227513e+002   4.240018139e-001  -1.067223688e+002   5.435568451e-001  -1.270401540e+002
  2.240000000e+009  1.383954726e-001   7.917342864e+001   4.247559401e-001  -1.311050207e+002   4.247374257e-001  -1.311045468e+002   5.331342506e-001  -1.256946010e+002
  2.260000000e+009  8.035016069e-002   4.283072465e+001   4.219981665e-001  -1.558744932e+002   4.219782236e-001  -1.558735821e+002   5.331283744e-001  -1.234025989e+002
  2.280000000e+009  1.329618197e-002  -8.406037263e+001   4.140259294e-001   1.792318904e+002   4.140064091e-001   1.792329315e+002   5.490545299e-001  -1.210308480e+002
  2.300000000e+009  1.000211502e-001   1.791156042e+002   4.007174030e-001   1.546537047e+002   4.006995017e-001   1.546551174e+002   5.795894190e-001  -1.197462616e+002
  2.320000000e+009  1.934451032e-001   1.477489903e+002   3.842553405e-001   1.308303888e+002   3.842395476e-001   1.308319030e+002   6.161161884e-001  -1.201228524e+002
