! Created Sun Jun 24 21:03:13 2012
# hz S ma R 100
! 2 Port Network Data from SP1.SP block
! freq  magS11  angS11  magS21  angS21  magS12  angS12  magS22  angS22  
!     
  0.000000000e+007  0  0  1  0  1  0  0  0
  2.000000000e+007  7.114134568e-002  -4.862257969e+000   9.463877726e-001  -3.119872777e+001   9.462049888e-001  -3.119407491e+001   4.864346138e-002   1.024382964e+002
  4.000000000e+007  6.635496928e-002  -1.381715737e+001   9.283343206e-001  -6.106993092e+001   9.281991540e-001  -6.106135368e+001   5.428236810e-002   2.774998427e+001
  6.000000000e+007  6.708450574e-002  -1.179381462e+001   9.142170444e-001  -9.069809450e+001   9.141483841e-001  -9.068700504e+001   8.203574946e-002  -2.473700026e+001
  8.000000000e+007  8.344630183e-002  -1.695519255e+001   9.006987396e-001  -1.201619553e+002   9.007053687e-001  -1.201501543e+002   1.119281793e-001  -6.022489301e+001
  1.000000000e+008  9.798767334e-002  -3.494563281e+001   8.881524467e-001  -1.494357149e+002   8.882329669e-001  -1.494251636e+002   1.296298510e-001  -8.765191497e+001
  1.200000000e+008  9.516121491e-002  -5.981825959e+001   8.777481339e-001  -1.785778165e+002   8.778863441e-001  -1.785703409e+002   1.275443715e-001  -1.095150754e+002
  1.400000000e+008  6.844979831e-002  -8.839826432e+001   8.695905258e-001   1.522832978e+002   8.697612342e-001   1.522863309e+002   1.050070469e-001  -1.239213898e+002
  1.600000000e+008  1.922734980e-002  -1.241425792e+002   8.620765893e-001   1.230455971e+002   8.622484113e-001   1.230437278e+002   7.435295589e-002  -1.204873912e+002
  1.800000000e+008  4.455994025e-002   3.783845875e+001   8.529055041e-001   9.373565570e+001   8.530457794e-001   9.372935354e+001   7.577844513e-002  -9.282465983e+001
  2.000000000e+008  1.077856354e-001   4.953355190e+000   8.411843847e-001   6.451131917e+001   8.412728883e-001   6.450181687e+001   1.173863753e-001  -8.544722200e+001
  2.200000000e+008  1.548708391e-001  -2.614986044e+001   8.286628710e-001   3.552643777e+001   8.286910083e-001   3.551528189e+001   1.577791059e-001  -9.493265772e+001
  2.400000000e+008  1.726488160e-001  -5.668459557e+001   8.184752974e-001   6.767242092e+000   8.184391092e-001   6.756029563e+000   1.756403752e-001  -1.083533001e+002
  2.600000000e+008  1.533513099e-001  -8.684438215e+001   8.123360097e-001  -2.197909974e+001   8.122377941e-001  -2.198865551e+001   1.643950228e-001  -1.197588841e+002
  2.800000000e+008  9.581266887e-002  -1.162271926e+002   8.085153884e-001  -5.097334636e+001   8.083688607e-001  -5.097955253e+001   1.323477976e-001  -1.215466339e+002
  3.000000000e+008  9.141471765e-003  -1.130167558e+002   8.023988144e-001  -8.027776584e+001   8.022284346e-001  -8.027929866e+001   1.182405252e-001  -1.039507630e+002
  3.200000000e+008  9.449354768e-002  -4.622376774e+000   7.902627554e-001  -1.096186334e+002   7.901011992e-001  -1.096151472e+002   1.619687578e-001  -9.013340113e+001
  3.400000000e+008  1.858587918e-001  -3.320541547e+001   7.735202067e-001  -1.385630002e+002   7.733951152e-001  -1.385552731e+002   2.259438159e-001  -9.520736432e+001
  3.600000000e+008  2.468017678e-001  -6.212948674e+001   7.583418928e-001  -1.669087294e+002   7.582717769e-001  -1.668982573e+002   2.700710992e-001  -1.081268260e+002
  3.800000000e+008  2.646228083e-001  -9.052658892e+001   7.508035909e-001   1.650938432e+002   7.507923816e-001   1.651052840e+002   2.767162907e-001  -1.228792728e+002
  4.000000000e+008  2.330806596e-001  -1.182985848e+002   7.522210576e-001   1.368706457e+002   7.522692527e-001   1.368812310e+002   2.406317530e-001  -1.358963573e+002
  4.200000000e+008  1.524681131e-001  -1.437645788e+002   7.572000745e-001   1.079051998e+002   7.572985679e-001   1.079133935e+002   1.713202206e-001  -1.396658425e+002
  4.400000000e+008  4.300974450e-002  -1.380803658e+002   7.557874599e-001   7.819991328e+001   7.559202916e-001   7.820433429e+001   1.278807594e-001  -1.141758069e+002
  4.600000000e+008  1.085057520e-001  -5.440758381e+001   7.415680845e-001   4.844285884e+001   7.417095929e-001   4.844271805e+001   1.921900395e-001  -9.191906777e+001
  4.800000000e+008  2.173156833e-001  -7.549502163e+001   7.190033832e-001   1.948937934e+001   7.191277783e-001   1.948457610e+001   2.833922357e-001  -9.733588306e+001
  5.000000000e+008  2.852184049e-001  -1.021345470e+002   6.994736462e-001  -8.393441088e+000   6.995581849e-001  -8.402070940e+000   3.426586979e-001  -1.105120222e+002
  5.200000000e+008  3.019228904e-001  -1.297131051e+002   6.917278996e-001  -3.570295386e+001   6.917592668e-001  -3.571354721e+001   3.554518490e-001  -1.247820225e+002
  5.400000000e+008  2.645070637e-001  -1.583928293e+002   6.970124411e-001  -6.332470106e+001   6.969881847e-001  -6.333530029e+001   3.208356508e-001  -1.372883133e+002
  5.600000000e+008  1.747525621e-001   1.708340295e+002   7.083472856e-001  -9.198900140e+001   7.082766945e-001  -9.199793816e+001   2.499741086e-001  -1.431299693e+002
  5.800000000e+008  4.730738717e-002   1.316893140e+002   7.133701214e-001  -1.217158755e+002   7.132625212e-001  -1.217221367e+002   1.901753572e-001  -1.312785315e+002
  6.000000000e+008  8.847633051e-002  -6.283767014e+001   7.040166873e-001  -1.516565385e+002   7.038875160e-001  -1.516594644e+002   2.169019971e-001  -1.114090404e+002
  6.200000000e+008  1.929314941e-001  -9.707459474e+001   6.850463601e-001   1.791848799e+002   6.849128225e-001   1.791860546e+002   2.896832204e-001  -1.099133181e+002
  6.400000000e+008  2.464157801e-001  -1.283226754e+002   6.682886147e-001   1.510493822e+002   6.681691317e-001   1.510550242e+002   3.405103021e-001  -1.178635296e+002
  6.600000000e+008  2.427505038e-001  -1.600137960e+002   6.614421070e-001   1.233602980e+002   6.613620134e-001   1.233697245e+002   3.509516357e-001  -1.272063377e+002
  6.800000000e+008  1.848137953e-001   1.641327072e+002   6.637339175e-001   9.528467690e+001   6.637079509e-001   9.529580746e+001   3.264055237e-001  -1.337263870e+002
  7.000000000e+008  9.303654890e-002   1.082101409e+002   6.672326249e-001   6.636981564e+001   6.672617640e-001   6.638026294e+001   2.916399350e-001  -1.336110331e+002
  7.200000000e+008  9.351926824e-002  -1.051093634e+001   6.630715637e-001   3.695138978e+001   6.631406093e-001   3.695941994e+001   2.862734608e-001  -1.277175021e+002
  7.400000000e+008  1.911998925e-001  -6.655003997e+001   6.504354881e-001   7.861903160e+000   6.505256849e-001   7.866600096e+000   3.170648394e-001  -1.252459483e+002
  7.600000000e+008  2.575154399e-001  -1.017019565e+002   6.373004639e-001  -2.043515802e+001   6.373976267e-001  -2.043375043e+001   3.468870206e-001  -1.292840814e+002
  7.800000000e+008  2.675089816e-001  -1.316872647e+002   6.316838461e-001  -4.828701019e+001   6.317797882e-001  -4.828904367e+001   3.468765122e-001  -1.359927778e+002
  8.000000000e+008  2.147741968e-001  -1.589386349e+002   6.345347796e-001  -7.651722901e+001   6.346181664e-001  -7.652282896e+001   3.119776984e-001  -1.405131491e+002
  8.200000000e+008  1.044728984e-001  -1.781115543e+002   6.382012269e-001  -1.057282606e+002   6.382512109e-001  -1.057371229e+002   2.666938267e-001  -1.363500102e+002
  8.400000000e+008  6.485066482e-002  -8.141204916e+001   6.313668993e-001  -1.356212738e+002   6.313668457e-001  -1.356317628e+002   2.711644937e-001  -1.235147306e+002
  8.600000000e+008  2.074097272e-001  -8.680143189e+001   6.110916184e-001  -1.650360585e+002   6.110382685e-001  -1.650455019e+002   3.372541443e-001  -1.188246785e+002
  8.800000000e+008  3.176049909e-001  -1.102318323e+002   5.874819270e-001   1.669485821e+002   5.873935817e-001   1.669425979e+002   4.042729944e-001  -1.247463261e+002
  9.000000000e+008  3.732731557e-001  -1.339386033e+002   5.732580108e-001   1.401727657e+002   5.731618022e-001   1.401709952e+002   4.338053238e-001  -1.350261325e+002
  9.200000000e+008  3.699164956e-001  -1.565897815e+002   5.745853151e-001   1.136146793e+002   5.744961087e-001   1.136163432e+002   4.141725258e-001  -1.461074210e+002
  9.400000000e+008  3.061776997e-001  -1.769305434e+002   5.888386486e-001   8.602045412e+001   5.887611676e-001   8.602447205e+001   3.442659401e-001  -1.546983134e+002
  9.600000000e+008  1.947697932e-001   1.731172377e+002   6.038070465e-001   5.665464497e+001   6.037434228e-001   5.666071788e+001   2.479277859e-001  -1.517265510e+002
  9.800000000e+008  1.352643761e-001  -1.555142890e+002   6.032060142e-001   2.612290555e+001   6.031654832e-001   2.613092326e+001   2.243935213e-001  -1.270976167e+002
  1.000000000e+009  2.322874962e-001  -1.402344520e+002   5.834105467e-001  -3.839927227e+000   5.834051651e-001  -3.830699039e+000   3.136155434e-001  -1.158766460e+002
  1.020000000e+009  3.306626966e-001  -1.547313253e+002   5.581714564e-001  -3.202440576e+001   5.582064762e-001  -3.201592828e+001   4.036650951e-001  -1.219435266e+002
  1.040000000e+009  3.768409312e-001  -1.750559170e+002   5.426166891e-001  -5.867539840e+001   5.426815300e-001  -5.866977305e+001   4.474191217e-001  -1.326914497e+002
  1.060000000e+009  3.654254502e-001   1.631232698e+002   5.431378035e-001  -8.496016771e+001   5.432152246e-001  -8.495852587e+001   4.395723054e-001  -1.437949257e+002
  1.080000000e+009  2.964540812e-001   1.409719491e+002   5.571786241e-001  -1.121785806e+002   5.572507915e-001  -1.121806902e+002   3.843549718e-001  -1.526294749e+002
  1.100000000e+009  1.777203776e-001   1.228175200e+002   5.742077196e-001  -1.410546107e+002   5.742612478e-001  -1.410594099e+002   3.022990361e-001  -1.538757209e+002
  1.120000000e+009  6.596625967e-002   1.516912048e+002   5.807821232e-001  -1.711461139e+002   5.808116551e-001  -1.711524664e+002   2.548614634e-001  -1.410447521e+002
  1.140000000e+009  1.407591754e-001  -1.627036326e+002   5.725936302e-001   1.588808998e+002   5.725963053e-001   1.588737927e+002   2.890554970e-001  -1.282775601e+002
  1.160000000e+009  2.223187411e-001  -1.795727760e+002   5.582871077e-001   1.299829160e+002   5.582638789e-001   1.299757236e+002   3.468894857e-001  -1.280323226e+002
  1.180000000e+009  2.452996093e-001   1.559624481e+002   5.485195537e-001   1.020147581e+002   5.484674950e-001   1.020084462e+002   3.780066262e-001  -1.334575041e+002
  1.200000000e+009  2.074151965e-001   1.281542562e+002   5.469966008e-001   7.414967065e+001   5.469193212e-001   7.414577771e+001   3.746600273e-001  -1.389070819e+002
  1.220000000e+009  1.182480475e-001   9.328451763e+001   5.497081996e-001   4.568078033e+001   5.496193080e-001   4.568045963e+001   3.516680449e-001  -1.410443207e+002
  1.240000000e+009  3.695314930e-002  -2.358278355e+001   5.494602345e-001   1.660460978e+001   5.493796067e-001   1.660808510e+001   3.369557745e-001  -1.391272391e+002
  1.260000000e+009  1.358328477e-001  -1.096475780e+002   5.431913388e-001  -1.244808825e+001   5.431327148e-001  -1.244214916e+001   3.456858951e-001  -1.372053950e+002
  1.280000000e+009  2.195524449e-001  -1.418975901e+002   5.349732619e-001  -4.094461334e+001   5.349414782e-001  -4.093748164e+001   3.597872481e-001  -1.389434629e+002
  1.300000000e+009  2.509037484e-001  -1.677945752e+002   5.308951511e-001  -6.902230791e+001   5.308866871e-001  -6.901528778e+001   3.537959507e-001  -1.431101505e+002
  1.320000000e+009  2.237832278e-001   1.711743840e+002   5.327743457e-001  -9.735285363e+001   5.327884527e-001  -9.734629660e+001   3.188052083e-001  -1.457886772e+002
  1.340000000e+009  1.506586377e-001   1.630239659e+002   5.356319717e-001  -1.265347788e+002   5.356689657e-001  -1.265293080e+002   2.738471690e-001  -1.410158653e+002
  1.360000000e+009  1.173075331e-001  -1.643227184e+002   5.307246702e-001  -1.563900657e+002   5.307783044e-001  -1.563871227e+002   2.727073818e-001  -1.278890539e+002
  1.380000000e+009  2.098784278e-001  -1.503137352e+002   5.148407468e-001   1.741122034e+002   5.148963284e-001   1.741121185e+002   3.323503565e-001  -1.213283720e+002
  1.400000000e+009  3.103955449e-001  -1.636134803e+002   4.950982329e-001   1.459060623e+002   4.951382662e-001   1.459030122e+002   3.980885204e-001  -1.252932125e+002
  1.420000000e+009  3.701369249e-001   1.780421736e+002   4.817528869e-001   1.189683863e+002   4.817734676e-001   1.189638640e+002   4.301435550e-001  -1.340094297e+002
  1.440000000e+009  3.800135824e-001   1.595502956e+002   4.805100124e-001   9.241580948e+001   4.805127722e-001   9.241064257e+001   4.158002782e-001  -1.437791155e+002
  1.460000000e+009  3.403933682e-001   1.432579550e+002   4.902690102e-001   6.507254034e+001   4.902574215e-001   6.506742338e+001   3.539254785e-001  -1.515424670e+002
  1.480000000e+009  2.658622030e-001   1.345225987e+002   5.027089910e-001   3.615453873e+001   5.026804500e-001   3.614970659e+001   2.631437144e-001  -1.500629675e+002
  1.500000000e+009  2.163872227e-001   1.428663690e+002   5.056038987e-001   5.982202359e+000   5.055579218e-001   5.978336604e+000   2.221177432e-001  -1.285416841e+002
  1.520000000e+009  2.572628156e-001   1.522712442e+002   4.937893783e-001  -2.403372551e+001   4.937319779e-001  -2.403559794e+001   2.919048338e-001  -1.126618015e+002
  1.540000000e+009  3.276148585e-001   1.446231085e+002   4.751886595e-001  -5.264656742e+001   4.751291778e-001  -5.264600736e+001   3.815818449e-001  -1.150343108e+002
  1.560000000e+009  3.673877541e-001   1.287678250e+002   4.615160802e-001  -7.980373344e+001   4.614661413e-001  -7.980053758e+001   4.334439369e-001  -1.235222285e+002
  1.580000000e+009  3.611982977e-001   1.101472353e+002   4.589935369e-001  -1.063996974e+002   4.589600039e-001  -1.063950341e+002   4.381009416e-001  -1.327726261e+002
  1.600000000e+009  3.078554566e-001   9.109590709e+001   4.670472248e-001  -1.335535019e+002   4.670304466e-001  -1.335484943e+002   4.000647634e-001  -1.401621221e+002
  1.620000000e+009  2.158096582e-001   7.567415109e+001   4.795426628e-001  -1.620042489e+002   4.795396325e-001  -1.619999583e+002   3.354240783e-001  -1.420780200e+002
  1.640000000e+009  1.223779935e-001   8.004774682e+001   4.875221395e-001   1.683246136e+002   4.875259292e-001   1.683281002e+002   2.852120604e-001  -1.339683821e+002
  1.660000000e+009  1.229579731e-001   1.117636817e+002   4.855504452e-001   1.383089312e+002   4.855609288e-001   1.383116410e+002   2.949237214e-001  -1.214650672e+002
  1.680000000e+009  1.784589272e-001   1.083763289e+002   4.764600750e-001   1.088666163e+002   4.764769187e-001   1.088685480e+002   3.436281261e-001  -1.166446045e+002
  1.700000000e+009  2.005838129e-001   8.725150164e+001   4.669922386e-001   8.020349951e+001   4.670143372e-001   8.020379987e+001   3.859086529e-001  -1.180974249e+002
  1.720000000e+009  1.754523183e-001   5.848279048e+001   4.609496754e-001   5.191514637e+001   4.609666495e-001   5.191329791e+001   4.068947804e-001  -1.211863604e+002
  1.740000000e+009  1.145365077e-001   1.806612184e+001   4.578188905e-001   2.355407217e+001   4.578219260e-001   2.355070643e+001   4.119991079e-001  -1.235859073e+002
  1.760000000e+009  6.786169699e-002  -6.387477871e+001   4.553051639e-001  -5.011740111e+000   4.552912061e-001  -5.015239092e+000   4.118590556e-001  -1.248647910e+002
  1.780000000e+009  1.142942561e-001  -1.442803949e+002   4.522214564e-001  -3.364035638e+001   4.521951466e-001  -3.364279809e+001   4.117171972e-001  -1.257563440e+002
  1.800000000e+009  1.695710433e-001   1.754555640e+002   4.494781096e-001  -6.220880132e+001   4.494485919e-001  -6.220982591e+001   4.075594217e-001  -1.268296696e+002
  1.820000000e+009  1.862299895e-001   1.462181153e+002   4.484893218e-001  -9.086859496e+001   4.484600378e-001  -9.086884510e+001   3.931401867e-001  -1.273085854e+002
  1.840000000e+009  1.545524196e-001   1.249604623e+002   4.483712045e-001  -1.199757436e+002   4.483423029e-001  -1.199755079e+002   3.724557498e-001  -1.251613358e+002
  1.860000000e+009  9.457246199e-002   1.275848867e+002   4.450346024e-001  -1.496595052e+002   4.450052078e-001  -1.496585510e+002   3.670745329e-001  -1.193452400e+002
  1.880000000e+009  1.154189687e-001   1.675769369e+002   4.345329822e-001  -1.794449051e+002   4.345059737e-001  -1.794431074e+002   3.980897472e-001  -1.136217706e+002
  1.900000000e+009  2.141259978e-001   1.646017129e+002   4.180217288e-001   1.515087312e+002   4.180015942e-001   1.515113638e+002   4.531182281e-001  -1.126687057e+002
  1.920000000e+009  3.001727768e-001   1.463028853e+002   4.016224120e-001   1.236968150e+002   4.016112364e-001   1.236996368e+002   5.013577918e-001  -1.161162302e+002
  1.940000000e+009  3.488404839e-001   1.255504393e+002   3.916025912e-001   9.686813221e+001   3.915972074e-001   9.687042621e+001   5.230471920e-001  -1.215635898e+002
  1.960000000e+009  3.533652666e-001   1.051467907e+002   3.908799352e-001   7.018039010e+001   3.908774193e-001   7.018186480e+001   5.115433419e-001  -1.269773131e+002
  1.980000000e+009  3.131416244e-001   8.709920339e+001   3.979131177e-001   4.261328430e+001   3.979113733e-001   4.261413504e+001   4.695583821e-001  -1.301694599e+002
  2.000000000e+009  2.412196355e-001   7.693045937e+001   4.062320648e-001   1.350321047e+001   4.062291377e-001   1.350362895e+001   4.172769957e-001  -1.278906007e+002
  2.020000000e+009  1.946819390e-001   8.513594272e+001   4.065186656e-001  -1.684677733e+001   4.065151947e-001  -1.684656407e+001   4.019685359e-001  -1.192298946e+002
  2.040000000e+009  2.386519047e-001   9.407305928e+001   3.944205127e-001  -4.709591170e+001   3.944166064e-001  -4.709648948e+001   4.493062939e-001  -1.123025150e+002
  2.060000000e+009  3.129832734e-001   8.444816122e+001   3.756642596e-001  -7.593401470e+001   3.756566624e-001  -7.593495307e+001   5.187032993e-001  -1.122816889e+002
  2.080000000e+009  3.599388598e-001   6.645117528e+001   3.595959669e-001  -1.031109244e+002   3.595845933e-001  -1.031120780e+002   5.695147037e-001  -1.163174114e+002
  2.100000000e+009  3.661590879e-001   4.574224286e+001   3.519821771e-001  -1.293214709e+002   3.519668649e-001  -1.293224138e+002   5.893182729e-001  -1.214839785e+002
  2.120000000e+009  3.315363784e-001   2.415684409e+001   3.540406264e-001  -1.556359463e+002   3.540230214e-001  -1.556365010e+002   5.787675619e-001  -1.261211867e+002
  2.140000000e+009  2.593758044e-001   3.436093969e+000   3.631342824e-001   1.769437696e+002   3.631155680e-001   1.769436239e+002   5.447192260e-001  -1.287603354e+002
  2.160000000e+009  1.632109761e-001  -9.681426951e+000   3.729842350e-001   1.479230534e+002   3.729645612e-001   1.479230921e+002   5.052498998e-001  -1.277579773e+002
  2.180000000e+009  1.011869052e-001   9.840699628e+000   3.760222373e-001   1.177076541e+002   3.760006025e-001   1.177080164e+002   4.904820016e-001  -1.231980749e+002
  2.200000000e+009  1.464667020e-001   2.672856336e+001   3.691066050e-001   8.743513306e+001   3.690853053e-001   8.743578556e+001   5.151047047e-001  -1.188990927e+002
  2.220000000e+009  2.027970020e-001   9.373906416e+000   3.560344524e-001   5.811357522e+001   3.560151507e-001   5.811451118e+001   5.592656286e-001  -1.178764104e+002
  2.240000000e+009  2.247524315e-001  -1.839514457e+001   3.430841962e-001   2.999330096e+001   3.430679169e-001   2.999428172e+001   5.979610600e-001  -1.194968166e+002
  2.260000000e+009  2.137233359e-001  -5.145256451e+001   3.343707204e-001   2.678411429e+000   3.343544902e-001   2.679488777e+000   6.208078478e-001  -1.221976775e+002
  2.280000000e+009  1.826164469e-001  -9.055437837e+001   3.308927352e-001  -2.445325291e+001   3.308754565e-001  -2.445217393e+001   6.276781975e-001  -1.249301710e+002
  2.300000000e+009  1.491730836e-001  -1.379717889e+002   3.315654996e-001  -5.191759614e+001   3.315483635e-001  -5.191588120e+001   6.222011992e-001  -1.271112153e+002
  2.320000000e+009  1.292518825e-001   1.678309119e+002   3.344233139e-001  -8.000281840e+001   3.344090271e-001  -8.000070696e+001   6.091143145e-001  -1.283778610e+002
