! Created Sun Jun 24 21:05:14 2012
# hz S ma R 100
! 2 Port Network Data from SP1.SP block
! freq  magS11  angS11  magS21  angS21  magS12  angS12  magS22  angS22  
!     
  0.000000000e+007  0  0  1  0  1  0  0  0
  2.000000000e+007  7.894813295e-002  -4.829696274e+000   9.361120208e-001  -3.935809863e+001   9.359308652e-001  -3.935345419e+001   5.307014942e-002   7.345923360e+001
  4.000000000e+007  7.477234926e-002  -1.450682686e+001   9.131022686e-001  -7.700732062e+001   9.129687039e-001  -7.699872144e+001   7.630031764e-002  -3.919687180e+000
  6.000000000e+007  7.997564111e-002  -1.802236140e+001   8.950613211e-001  -1.143059120e+002   8.949939037e-001  -1.142947551e+002   1.067073408e-001  -5.404143915e+001
  8.000000000e+007  8.882941267e-002  -3.387329993e+001   8.790538580e-001  -1.513540471e+002   8.790613777e-001  -1.513421717e+002   1.191852154e-001  -9.122771229e+001
  1.000000000e+008  7.482838063e-002  -5.808116746e+001   8.659530431e-001   1.717506692e+002   8.660336705e-001   1.717611850e+002   1.015010233e-001  -1.189467122e+002
  1.200000000e+008  3.145734817e-002  -6.980972059e+001   8.547636685e-001   1.348246825e+002   8.548986046e-001   1.348319603e+002   6.086879395e-002  -1.255500010e+002
  1.400000000e+008  4.599551729e-002   1.881966590e+001   8.423702894e-001   9.784355060e+001   8.425321192e-001   9.784646504e+001   5.951783179e-002  -8.286537051e+001
  1.600000000e+008  1.101047417e-001  -3.526237883e+000   8.276323395e-001   6.101394506e+001   8.277934521e-001   6.101230537e+001   1.111559330e-001  -8.173371258e+001
  1.800000000e+008  1.465376844e-001  -3.640830584e+001   8.136612044e-001   2.448824339e+001   8.137966466e-001   2.448236432e+001   1.442072280e-001  -9.947075340e+001
  2.000000000e+008  1.355304277e-001  -6.992288484e+001   8.039517498e-001  -1.191540483e+001   8.040433255e-001  -1.192481524e+001   1.371894635e-001  -1.162773114e+002
  2.200000000e+008  7.416621797e-002  -9.738557397e+001   7.970080058e-001  -4.855178717e+001   7.970392424e-001  -4.856338803e+001   1.009059736e-001  -1.170517927e+002
  2.400000000e+008  3.815327615e-002  -1.141061113e+001   7.868056638e-001  -8.545742690e+001   7.867666498e-001  -8.546908617e+001   1.057648552e-001  -8.968806997e+001
  2.600000000e+008  1.357426893e-001  -1.973163993e+001   7.706632903e-001  -1.221655222e+002   7.705628704e-001  -1.221749461e+002   1.718602851e-001  -8.771505679e+001
  2.800000000e+008  2.052998626e-001  -5.197242122e+001   7.545565786e-001  -1.582622262e+002   7.544186168e-001  -1.582678613e+002   2.224486247e-001  -1.037449274e+002
  3.000000000e+008  2.170055170e-001  -8.557282350e+001   7.465891305e-001   1.659826816e+002   7.464368574e-001   1.659814919e+002   2.216832561e-001  -1.226479162e+002
  3.200000000e+008  1.617487852e-001  -1.174287383e+002   7.467423824e-001   1.297926138e+002   7.465963522e-001   1.297958528e+002   1.652717966e-001  -1.352550920e+002
  3.400000000e+008  5.690071037e-002  -1.263195711e+002   7.444900328e-001   9.277268908e+001   7.443698119e-001   9.277991513e+001   1.057725802e-001  -1.139725984e+002
  3.600000000e+008  1.004606752e-001  -4.704830452e+001   7.298884061e-001   5.559382611e+001   7.298159607e-001   5.560413501e+001   1.699230247e-001  -8.647786703e+001
  3.800000000e+008  2.036136242e-001  -7.205589675e+001   7.081532547e-001   1.932026568e+001   7.081401270e-001   1.933202952e+001   2.601630754e-001  -9.691281613e+001
  4.000000000e+008  2.475268843e-001  -1.051776681e+002   6.939289778e-001  -1.595849713e+001   6.939775391e-001  -1.594764897e+001   2.976444263e-001  -1.149283583e+002
  4.200000000e+008  2.177872136e-001  -1.402198094e+002   6.940987311e-001  -5.127163401e+001   6.941938549e-001  -5.126377557e+001   2.687168457e-001  -1.312851644e+002
  4.400000000e+008  1.182161102e-001  -1.771803669e+002   7.005487015e-001  -8.767603684e+001   7.006692483e-001  -8.767218430e+001   1.932234777e-001  -1.358002780e+002
  4.600000000e+008  2.107712309e-002  -3.413048344e+001   6.972691434e-001  -1.250186038e+002   6.973940394e-001  -1.250187892e+002   1.646002450e-001  -1.127265666e+002
  4.800000000e+008  1.447699945e-001  -7.335235477e+001   6.801471010e-001  -1.619836200e+002   6.802605939e-001  -1.619878077e+002   2.354656366e-001  -1.028705505e+002
  5.000000000e+008  2.070118176e-001  -1.112583556e+002   6.625286424e-001   1.621886249e+002   6.626131634e-001   1.621805741e+002   2.947401423e-001  -1.122792006e+002
  5.200000000e+008  1.910043118e-001  -1.506387411e+002   6.559685503e-001   1.268159675e+002   6.560054619e-001   1.268052969e+002   2.989433133e-001  -1.238435032e+002
  5.400000000e+008  1.043619841e-001   1.597535010e+002   6.573443948e-001   9.077509934e+001   6.573234121e-001   9.076397193e+001   2.629982154e-001  -1.286402767e+002
  5.600000000e+008  6.066210329e-002   1.393450276e+001   6.538007106e-001   5.391599218e+001   6.537310513e-001   5.390673315e+001   2.453937908e-001  -1.222655543e+002
  5.800000000e+008  1.711442828e-001  -5.578048671e+001   6.403376337e-001   1.727023048e+001   6.402359027e-001   1.726418145e+001   2.792597065e-001  -1.185351304e+002
  6.000000000e+008  2.316536203e-001  -9.624716844e+001   6.271435153e-001  -1.848521315e+001   6.270272837e-001  -1.848764966e+001   3.089375656e-001  -1.244901946e+002
  6.200000000e+008  2.085814701e-001  -1.313026767e+002   6.237021907e-001  -5.403737574e+001   6.235829380e-001  -5.403578257e+001   2.931291639e-001  -1.319503626e+002
  6.400000000e+008  1.024893130e-001  -1.573305642e+002   6.250266585e-001  -9.049950229e+001   6.249189182e-001  -9.049361321e+001   2.487690391e-001  -1.301566450e+002
  6.600000000e+008  7.619027843e-002  -6.129097228e+001   6.161688778e-001  -1.277600448e+002   6.160986125e-001  -1.277505465e+002   2.574663784e-001  -1.169806627e+002
  6.800000000e+008  2.245280880e-001  -7.801361159e+001   5.940851752e-001  -1.642649678e+002   5.940658634e-001  -1.642538976e+002   3.315189667e-001  -1.156702378e+002
  7.000000000e+008  3.138362884e-001  -1.077182322e+002   5.748092192e-001   1.608718360e+002   5.748371272e-001   1.608821019e+002   3.833752075e-001  -1.260906992e+002
  7.200000000e+008  3.188203372e-001  -1.366588619e+002   5.724279439e-001   1.266244669e+002   5.724886769e-001   1.266324012e+002   3.702108413e-001  -1.390919296e+002
  7.400000000e+008  2.366432011e-001  -1.610429838e+002   5.842731292e-001   9.112428080e+001   5.843572045e-001   9.112910638e+001   2.912021957e-001  -1.466942118e+002
  7.600000000e+008  1.174998003e-001  -1.531389715e+002   5.903021210e-001   5.365828789e+001   5.903998426e-001   5.365954231e+001   2.192160034e-001  -1.318134863e+002
  7.800000000e+008  1.836642240e-001  -1.149891035e+002   5.741731982e-001   1.598985960e+001   5.742662434e-001   1.598684162e+001   2.848911642e-001  -1.134044899e+002
  8.000000000e+008  2.971698997e-001  -1.320293385e+002   5.485728086e-001  -1.972206775e+001   5.486395852e-001  -1.972886691e+001   3.819598964e-001  -1.192985043e+002
  8.200000000e+008  3.354072143e-001  -1.584265495e+002   5.358375706e-001  -5.369355138e+001   5.358675162e-001  -5.370245383e+001   4.173228101e-001  -1.322871270e+002
  8.400000000e+008  2.866294928e-001   1.737247934e+002   5.428742103e-001  -8.789961267e+001   5.428700223e-001  -8.790894052e+001   3.801447373e-001  -1.442032385e+002
  8.600000000e+008  1.596588347e-001   1.505564873e+002   5.579172813e-001  -1.240251726e+002   5.578791747e-001  -1.240337290e+002   2.965085741e-001  -1.468707334e+002
  8.800000000e+008  6.445154911e-002  -1.522134155e+002   5.603790208e-001  -1.616778269e+002   5.603100567e-001  -1.616845315e+002   2.615987376e-001  -1.322654135e+002
  9.000000000e+008  1.790989714e-001  -1.397594998e+002   5.461950985e-001   1.612310891e+002   5.461056610e-001   1.612273382e+002   3.197296655e-001  -1.242690247e+002
  9.200000000e+008  2.364160055e-001  -1.674598899e+002   5.317502496e-001   1.256576111e+002   5.316529795e-001   1.256579421e+002   3.706510720e-001  -1.295879032e+002
  9.400000000e+008  2.022870958e-001   1.600883380e+002   5.283928204e-001   9.054140919e+001   5.283062688e-001   9.054598257e+001   3.710852861e-001  -1.369229843e+002
  9.600000000e+008  8.832661306e-002   1.211179281e+002   5.311156699e-001   5.455567413e+001   5.310558248e-001   5.456332758e+001   3.411016659e-001  -1.392327789e+002
  9.800000000e+008  6.756950933e-002  -7.097554225e+001   5.278753300e-001   1.781151461e+001   5.278484692e-001   1.782037698e+001   3.323825639e-001  -1.358443427e+002
  1.000000000e+009  1.930788633e-001  -1.123127319e+002   5.173258203e-001  -1.846548956e+001   5.173277019e-001  -1.845668114e+001   3.549631718e-001  -1.355431111e+002
  1.020000000e+009  2.453840443e-001  -1.438189686e+002   5.099063577e-001  -5.390085983e+001   5.099357771e-001  -5.389282638e+001   3.613419643e-001  -1.404271805e+002
  1.040000000e+009  2.087272658e-001  -1.689956373e+002   5.110647991e-001  -8.955620019e+001   5.111224258e-001  -8.955015916e+001   3.266038998e-001  -1.440810567e+002
  1.060000000e+009  1.151315842e-001  -1.671880070e+002   5.119876274e-001  -1.264258146e+002   5.120639143e-001  -1.264235557e+002   2.867751492e-001  -1.376240606e+002
  1.080000000e+009  1.597307296e-001  -1.239425880e+002   4.998697070e-001  -1.637090733e+002   4.999403933e-001  -1.637111430e+002   3.189922273e-001  -1.270664069e+002
  1.100000000e+009  2.850010361e-001  -1.353397659e+002   4.787878773e-001   1.604312653e+002   4.788352618e-001   1.604262457e+002   3.902032422e-001  -1.292212204e+002
  1.120000000e+009  3.526260706e-001  -1.577976034e+002   4.653553726e-001   1.263189611e+002   4.653813972e-001   1.263126334e+002   4.218537672e-001  -1.392442231e+002
  1.140000000e+009  3.419246773e-001  -1.798179753e+002   4.684459977e-001   9.235662363e+001   4.684532979e-001   9.234941799e+001   3.867608118e-001  -1.500529196e+002
  1.160000000e+009  2.623342548e-001   1.656678523e+002   4.812383372e-001   5.664428638e+001   4.812228043e-001   5.663653231e+001   2.963334673e-001  -1.532211181e+002
  1.180000000e+009  1.968213002e-001   1.761485033e+002   4.848070150e-001   1.904767820e+001   4.847616274e-001   1.904079731e+001   2.457917171e-001  -1.350529698e+002
  1.200000000e+009  2.587830289e-001  -1.733704476e+002   4.700559980e-001  -1.822021217e+001   4.699902927e-001  -1.822424931e+001   3.218423746e-001  -1.224837290e+002
  1.220000000e+009  3.334133727e-001   1.728075357e+002   4.515763039e-001  -5.340386638e+001   4.515084536e-001  -5.340438304e+001   4.021853806e-001  -1.288926934e+002
  1.240000000e+009  3.431923663e-001   1.515846508e+002   4.456617213e-001  -8.724587244e+001   4.456028187e-001  -8.724339582e+001   4.195391411e-001  -1.400955626e+002
  1.260000000e+009  2.788802003e-001   1.300841142e+002   4.543524383e-001  -1.217080502e+002   4.543040162e-001  -1.217038314e+002   3.727340000e-001  -1.491432434e+002
  1.280000000e+009  1.643724351e-001   1.198094291e+002   4.665439272e-001  -1.580086463e+002   4.665072624e-001  -1.580030307e+002   2.974651821e-001  -1.484044775e+002
  1.300000000e+009  1.181512948e-001   1.528171989e+002   4.683471000e-001   1.645642694e+002   4.683261226e-001   1.645708951e+002   2.770544838e-001  -1.352591429e+002
  1.320000000e+009  1.837274308e-001   1.575933083e+002   4.597431550e-001   1.277135078e+002   4.597471268e-001   1.277206624e+002   3.229115338e-001  -1.291994486e+002
  1.340000000e+009  2.033225736e-001   1.359913027e+002   4.517534018e-001   9.189011421e+001   4.517837141e-001   9.189601164e+001   3.574075665e-001  -1.324530735e+002
  1.360000000e+009  1.450398152e-001   1.085872902e+002   4.494158386e-001   5.621042246e+001   4.494600401e-001   5.621311798e+001   3.566806845e-001  -1.364143156e+002
  1.380000000e+009  2.814124511e-002   8.568934956e+001   4.484296739e-001   2.000575525e+001   4.484714699e-001   2.000555298e+001   3.439164784e-001  -1.368947735e+002
  1.400000000e+009  1.016152687e-001  -1.363577782e+002   4.439358868e-001  -1.637172196e+001   4.439654792e-001  -1.637392130e+001   3.454447161e-001  -1.359836184e+002
  1.420000000e+009  1.907814204e-001  -1.637227716e+002   4.382712851e-001  -5.232171179e+001   4.382928259e-001  -5.232503160e+001   3.495180479e-001  -1.377392373e+002
  1.440000000e+009  2.098607753e-001   1.724145064e+002   4.364793359e-001  -8.813019535e+001   4.364908482e-001  -8.813522786e+001   3.290630373e-001  -1.402696893e+002
  1.460000000e+009  1.654338282e-001   1.615070401e+002   4.367255777e-001  -1.246347113e+002   4.367187238e-001  -1.246407862e+002   2.917100613e-001  -1.368094054e+002
  1.480000000e+009  1.480038421e-001  -1.781657897e+002   4.306873186e-001  -1.618070529e+002   4.306573795e-001  -1.618124829e+002   2.950133782e-001  -1.258803531e+002
  1.500000000e+009  2.345406708e-001  -1.722096423e+002   4.158019966e-001   1.616352223e+002   4.157593042e-001   1.616320059e+002   3.543746024e-001  -1.221096782e+002
  1.520000000e+009  3.178983718e-001   1.721528027e+002   4.011685981e-001   1.266296050e+002   4.011264322e-001   1.266287223e+002   4.039518024e-001  -1.281667550e+002
  1.540000000e+009  3.450502946e-001   1.525538550e+002   3.965163324e-001   9.249675935e+001   3.964773252e-001   9.249712349e+001   4.013249204e-001  -1.373263076e+002
  1.560000000e+009  3.108965708e-001   1.358497003e+002   4.023820608e-001   5.761537600e+001   4.023444588e-001   5.761693217e+001   3.423049742e-001  -1.433320160e+002
  1.580000000e+009  2.492983683e-001   1.307241265e+002   4.088814196e-001   2.099400895e+001   4.088458098e-001   2.099691472e+001   2.708124231e-001  -1.360169090e+002
  1.600000000e+009  2.474165499e-001   1.379454191e+002   4.041631560e-001  -1.645195828e+001   4.041367233e-001  -1.644734164e+001   2.890693881e-001  -1.183268731e+002
  1.620000000e+009  3.047304722e-001   1.329426737e+002   3.900190622e-001  -5.277979149e+001   3.900102488e-001  -5.277459600e+001   3.715998003e-001  -1.159251985e+002
  1.640000000e+009  3.362022170e-001   1.162079213e+002   3.789443874e-001  -8.743635244e+001   3.789496952e-001  -8.743210794e+001   4.229376674e-001  -1.232609311e+002
  1.660000000e+009  3.099198271e-001   9.610069995e+001   3.785547615e-001  -1.216001170e+002   3.785669121e-001  -1.215977083e+002   4.174718578e-001  -1.316380524e+002
  1.680000000e+009  2.306723261e-001   7.885245689e+001   3.865532983e-001  -1.568116633e+002   3.865652877e-001  -1.568104692e+002   3.675469951e-001  -1.356760714e+002
  1.700000000e+009  1.432330345e-001   7.971247507e+001   3.934094438e-001   1.664176120e+002   3.934224044e-001   1.664178849e+002   3.201349809e-001  -1.302437998e+002
  1.720000000e+009  1.416492220e-001   9.902257152e+001   3.916145434e-001   1.290675042e+002   3.916269280e-001   1.290663843e+002   3.303948286e-001  -1.204920916e+002
  1.740000000e+009  1.744277523e-001   8.930868510e+001   3.836867143e-001   9.234969504e+001   3.836929225e-001   9.234689516e+001   3.754708018e-001  -1.176111279e+002
  1.760000000e+009  1.565629001e-001   6.307024639e+001   3.763694431e-001   5.641626820e+001   3.763635336e-001   5.641263441e+001   4.079960001e-001  -1.197295326e+002
  1.780000000e+009  8.482300658e-002   2.444065406e+001   3.722180313e-001   2.067708778e+001   3.722003604e-001   2.067392074e+001   4.189356559e-001  -1.223724356e+002
  1.800000000e+009  3.803503234e-002  -1.132996880e+002   3.695089108e-001  -1.524946968e+001   3.694856727e-001  -1.525147773e+001   4.196151458e-001  -1.240121620e+002
  1.820000000e+009  1.172784328e-001   1.791934726e+002   3.669477051e-001  -5.128646418e+001   3.669218255e-001  -5.128767736e+001   4.160885133e-001  -1.251470288e+002
  1.840000000e+009  1.572936438e-001   1.471482499e+002   3.652263081e-001  -8.745544555e+001   3.651986145e-001  -8.745591294e+001   4.037342096e-001  -1.255533365e+002
  1.860000000e+009  1.380600762e-001   1.281140511e+002   3.635464953e-001  -1.240887069e+002   3.635180298e-001  -1.240880818e+002   3.871457805e-001  -1.231892832e+002
  1.880000000e+009  1.086330209e-001   1.413631157e+002   3.578966888e-001  -1.612071781e+002   3.578710888e-001  -1.612055589e+002   3.930617172e-001  -1.177811378e+002
  1.900000000e+009  1.723999002e-001   1.563299763e+002   3.458219793e-001   1.620111931e+002   3.458023715e-001   1.620135853e+002   4.358378823e-001  -1.146617985e+002
  1.920000000e+009  2.617013736e-001   1.419077022e+002   3.318383879e-001   1.265254861e+002   3.318251047e-001   1.265280556e+002   4.843072506e-001  -1.169781570e+002
  1.940000000e+009  3.112570589e-001   1.204704104e+002   3.235308641e-001   9.221238628e+001   3.235210201e-001   9.221476950e+001   5.032961913e-001  -1.222373612e+002
  1.960000000e+009  3.055048517e-001   9.977378239e+001   3.241787406e-001   5.781736552e+001   3.241721690e-001   5.781952171e+001   4.814060405e-001  -1.268521323e+002
  1.980000000e+009  2.545535981e-001   8.595956481e+001   3.295634932e-001   2.196895912e+001   3.295615349e-001   2.197078978e+001   4.345941493e-001  -1.266474523e+002
  2.000000000e+009  2.164799622e-001   8.781809541e+001   3.296110130e-001  -1.542485689e+001   3.296121753e-001  -1.542387614e+001   4.170329680e-001  -1.195515434e+002
  2.020000000e+009  2.547980313e-001   8.981730114e+001   3.188704191e-001  -5.266710087e+001   3.188712724e-001  -5.266709333e+001   4.635761921e-001  -1.139830157e+002
  2.040000000e+009  3.088087331e-001   7.610218554e+001   3.044353335e-001  -8.813693112e+001   3.044330120e-001  -8.813799692e+001   5.246557793e-001  -1.154760626e+002
  2.060000000e+009  3.219628548e-001   5.524943334e+001   2.961796089e-001  -1.220827978e+002   2.961731290e-001  -1.220839948e+002   5.546663128e-001  -1.203480863e+002
  2.080000000e+009  2.838226033e-001   3.294278490e+001   2.973762277e-001  -1.560184556e+002   2.973672744e-001  -1.560198054e+002   5.455092586e-001  -1.249486070e+002
  2.100000000e+009  2.043965631e-001   1.488115877e+001   3.042643287e-001   1.686292657e+002   3.042517213e-001   1.686277867e+002   5.108583794e-001  -1.265013130e+002
  2.120000000e+009  1.315575191e-001   1.691716339e+001   3.085165785e-001   1.315990874e+002   3.084993600e-001   1.315978077e+002   4.858534417e-001  -1.234658667e+002
  2.140000000e+009  1.425475043e-001   2.902453576e+001   3.043057445e-001   9.411333309e+001   3.042861416e-001   9.411287522e+001   5.017412735e-001  -1.191991938e+002
  2.160000000e+009  1.744471562e-001   1.231002705e+001   2.946078933e-001   5.756842243e+001   2.945897939e-001   5.756857199e+001   5.418944278e-001  -1.182069966e+002
  2.180000000e+009  1.668809441e-001  -1.965404094e+001   2.858933531e-001   2.216753422e+001   2.858760509e-001   2.216793779e+001   5.746676286e-001  -1.200476389e+002
  2.200000000e+009  1.247709225e-001  -6.380623670e+001   2.812614372e-001  -1.275294039e+001   2.812440261e-001  -1.275249065e+001   5.887930456e-001  -1.227255144e+002
  2.220000000e+009  8.415767756e-002  -1.308867087e+002   2.802850852e-001  -4.788569769e+001   2.802673527e-001  -4.788485497e+001   5.866474988e-001  -1.249656713e+002
  2.240000000e+009  8.660427536e-002   1.521613789e+002   2.810776201e-001  -8.361570546e+001   2.810621174e-001  -8.361437031e+001   5.749384802e-001  -1.260782974e+002
  2.260000000e+009  9.255758021e-002   1.016733426e+002   2.814016518e-001  -1.200600787e+002   2.813887314e-001  -1.200584591e+002   5.625152879e-001  -1.256704979e+002
  2.280000000e+009  6.339752355e-002   7.919004747e+001   2.787385677e-001  -1.570820106e+002   2.787274130e-001  -1.570808503e+002   5.612609372e-001  -1.239069360e+002
  2.300000000e+009  6.214975577e-002   1.226453367e+002   2.712105291e-001   1.658846308e+002   2.711999035e-001   1.658857055e+002   5.802815879e-001  -1.221753948e+002
  2.320000000e+009  1.458583526e-001   1.186360714e+002   2.600617325e-001   1.297156979e+002   2.600518705e-001   1.297166553e+002   6.128836615e-001  -1.222289184e+002
