! Created Sun Jun 24 21:06:15 2012
# hz S ma R 100
! 2 Port Network Data from SP1.SP block
! freq  magS11  angS11  magS21  angS21  magS12  angS12  magS22  angS22  
!     
  0.000000000e+007  0  0  1  0  1  0  0  0 
  2.000000000e+007  8.142675420e-002  -5.149136625e+000   9.327332366e-001  -4.207552756e+001   9.325526113e-001  -4.207088470e+001   5.565461307e-002   6.494143248e+001
  4.000000000e+007  7.707994007e-002  -1.537368631e+001   9.081318502e-001  -8.231610940e+001   9.079988542e-001  -8.230749947e+001   8.306903753e-002  -1.234573558e+001
  6.000000000e+007  8.217423190e-002  -2.087366077e+001   8.889315884e-001  -1.221684439e+002   8.888647232e-001  -1.221572648e+002   1.110527453e-001  -6.287271708e+001
  8.000000000e+007  8.523174946e-002  -3.897679777e+001   8.723823345e-001  -1.617584779e+002   8.723903261e-001  -1.617465953e+002   1.139274046e-001  -1.008046404e+002
  1.000000000e+008  5.987246121e-002  -6.118537159e+001   8.589433092e-001   1.587616329e+002   8.590236569e-001   1.587721009e+002   8.278202319e-002  -1.263985852e+002
  1.200000000e+008  2.319813423e-002  -1.756632764e+001   8.463595298e-001   1.192252321e+002   8.464922600e-001   1.192324602e+002   4.399565871e-002  -1.071908863e+002
  1.400000000e+008  7.998426297e-002   8.537304235e+000   8.315974543e-001   7.972947955e+001   8.317559063e-001   7.973245304e+001   8.230587800e-002  -7.503305201e+001
  1.600000000e+008  1.320707399e-001  -2.176111427e+001   8.159030673e-001   4.051680389e+001   8.160623583e-001   4.051530494e+001   1.293290016e-001  -9.077836774e+001
  1.800000000e+008  1.392540958e-001  -5.621125371e+001   8.036599302e-001   1.547227341e+000   8.037962308e-001   1.541364399e+000   1.366335102e-001  -1.110132274e+002
  2.000000000e+008  9.076825522e-002  -8.685324421e+001   7.954267611e-001  -3.755165032e+001   7.955182675e-001  -3.756125237e+001   1.032023431e-001  -1.192913272e+002
  2.200000000e+008  3.016335466e-002  -3.433180157e+001   7.854583303e-001  -7.695652945e+001   7.854866388e-001  -7.696823748e+001   9.199577675e-002  -9.235515605e+001
  2.400000000e+008  1.205886831e-001  -1.605296987e+001   7.694842851e-001  -1.162501640e+002   7.694440003e-001  -1.162616673e+002   1.559017935e-001  -8.527979169e+001
  2.600000000e+008  1.938675669e-001  -4.849837910e+001   7.528270180e-001  -1.549398363e+002   7.527303296e-001  -1.549490380e+002   2.096749774e-001  -1.020624786e+002
  2.800000000e+008  2.051727229e-001  -8.357371582e+001   7.442902192e-001   1.667266749e+002   7.441576488e-001   1.667210157e+002   2.078281694e-001  -1.223993559e+002
  3.000000000e+008  1.441795586e-001  -1.161458292e+002   7.435491793e-001   1.279163722e+002   7.433984874e-001   1.279149073e+002   1.466770136e-001  -1.342435442e+002
  3.200000000e+008  4.291938499e-002  -1.041354147e+002   7.387401874e-001   8.830529083e+001   7.385925609e-001   8.830836834e+001   1.018477402e-001  -1.031307667e+002
  3.400000000e+008  1.240362874e-001  -4.897006944e+001   7.213723362e-001   4.876588938e+001   7.212527889e-001   4.877332345e+001   1.860836669e-001  -8.596979660e+001
  3.600000000e+008  2.130621916e-001  -7.919561385e+001   7.006418493e-001   1.028972202e+001   7.005743966e-001   1.030037567e+001   2.652009058e-001  -1.013812519e+002
  3.800000000e+008  2.302677984e-001  -1.150194095e+002   6.913381267e-001  -2.745229372e+001   6.913309322e-001  -2.744064572e+001   2.778716627e-001  -1.208254729e+002
  4.000000000e+008  1.666662198e-001  -1.528126802e+002   6.948723139e-001  -6.574980627e+001   6.949207382e-001  -6.573952548e+001   2.218216264e-001  -1.345735895e+002
  4.200000000e+008  3.963629168e-002   1.696495848e+002   6.966833057e-001  -1.052633504e+002   6.967713581e-001  -1.052556342e+002   1.537965584e-001  -1.236693626e+002
  4.400000000e+008  9.838046717e-002  -5.541953934e+001   6.839286153e-001  -1.450269202e+002   6.840422716e-001  -1.450224901e+002   1.950546386e-001  -1.012603782e+002
  4.600000000e+008  1.855851062e-001  -9.501931875e+001   6.646607034e-001   1.762423953e+002   6.647853093e-001   1.762427087e+002   2.687868441e-001  -1.070546959e+002
  4.800000000e+008  1.904996607e-001  -1.358301984e+002   6.543534450e-001   1.383023996e+002   6.544691260e-001   1.382978550e+002   2.886461679e-001  -1.198612956e+002
  5.000000000e+008  1.135531699e-001   1.760099388e+002   6.541498959e-001   9.990614572e+001   6.542302828e-001   9.989751959e+001   2.567667305e-001  -1.270468905e+002
  5.200000000e+008  4.727237660e-002   2.900303296e+001   6.510544343e-001   6.060633226e+001   6.510840918e-001   6.059585510e+001   2.329463577e-001  -1.213188962e+002
  5.400000000e+008  1.607915591e-001  -5.099488085e+001   6.377045335e-001   2.141209264e+001   6.376847516e-001   2.140166670e+001   2.655963721e-001  -1.166095214e+002
  5.600000000e+008  2.218660768e-001  -9.345968045e+001   6.242744837e-001  -1.687751435e+001   6.242160488e-001  -1.688659948e+001   2.960755999e-001  -1.229178315e+002
  5.800000000e+008  1.909776564e-001  -1.300387781e+002   6.208346252e-001  -5.501352704e+001   6.207400374e-001  -5.502025190e+001   2.770301899e-001  -1.304116102e+002
  6.000000000e+008  7.415509387e-002  -1.504405861e+002   6.205866715e-001  -9.414417308e+001   6.204652202e-001  -9.414709190e+001   2.355260228e-001  -1.261261950e+002
  6.200000000e+008  1.114438745e-001  -5.704211253e+001   6.079799111e-001  -1.338442792e+002   6.078571958e-001  -1.338421064e+002   2.642144869e-001  -1.134555346e+002
  6.400000000e+008  2.501533714e-001  -8.297556127e+001   5.850686702e-001  -1.723853061e+002   5.849731253e-001  -1.723785376e+002   3.403057386e-001  -1.167481615e+002
  6.600000000e+008  3.112924895e-001  -1.145751444e+002   5.710625758e-001   1.505915395e+002   5.710090879e-001   1.506008017e+002   3.711713010e-001  -1.295418279e+002
  6.800000000e+008  2.759321630e-001  -1.441189817e+002   5.755785521e-001   1.134078129e+002   5.755620262e-001   1.134176836e+002   3.260426481e-001  -1.419179938e+002
  7.000000000e+008  1.573437675e-001  -1.599546900e+002   5.860632840e-001   7.431131711e+001   5.860823170e-001   7.432103905e+001   2.341294487e-001  -1.397723719e+002
  7.200000000e+008  1.303466027e-001  -1.135520153e+002   5.786006338e-001   3.396111889e+001   5.786563556e-001   3.396964360e+001   2.422284728e-001  -1.154437718e+002
  7.400000000e+008  2.570326624e-001  -1.189315957e+002   5.536388808e-001  -5.014553643e+000   5.537230110e-001  -5.009312454e+000   3.465915900e-001  -1.147441082e+002
  7.600000000e+008  3.198970712e-001  -1.458676202e+002   5.359166225e-001  -4.184881064e+001   5.360087193e-001  -4.184806046e+001   4.026726073e-001  -1.275133809e+002
  7.800000000e+008  2.869012447e-001  -1.755049127e+002   5.388754683e-001  -7.840928404e+001   5.389578847e-001  -7.841276622e+001   3.783624804e-001  -1.407104381e+002
  8.000000000e+008  1.643566857e-001   1.587466702e+002   5.529148957e-001  -1.168069364e+002   5.529764146e-001  -1.168133251e+002   2.962473619e-001  -1.450095127e+002
  8.200000000e+008  6.280375247e-002  -1.458840678e+002   5.553032792e-001  -1.569074046e+002   5.553364404e-001  -1.569156484e+002   2.582824353e-001  -1.305489794e+002
  8.400000000e+008  1.798233510e-001  -1.341687381e+002   5.404571413e-001   1.635619587e+002   5.404590983e-001   1.635525765e+002   3.189456822e-001  -1.228677408e+002
  8.600000000e+008  2.308691339e-001  -1.641681128e+002   5.264428523e-001   1.256122568e+002   5.264072679e-001   1.256030478e+002   3.674265739e-001  -1.291380093e+002
  8.800000000e+008  1.807486170e-001   1.610394521e+002   5.244006471e-001   8.793518546e+001   5.243293421e-001   8.792833084e+001   3.603367799e-001  -1.364886152e+002
  9.000000000e+008  4.836579162e-002   1.162460674e+002   5.263406960e-001   4.920208065e+001   5.262508180e-001   4.919916823e+001   3.295557559e-001  -1.372011597e+002
  9.200000000e+008  1.111079439e-001  -8.269083647e+001   5.199368833e-001   9.954671320e+000   5.198485144e-001   9.955768964e+000   3.332012508e-001  -1.335127137e+002
  9.400000000e+008  2.188559306e-001  -1.196238547e+002   5.086780721e-001  -2.847998568e+001   5.086032620e-001  -2.847580780e+001   3.575128960e-001  -1.354717623e+002
  9.600000000e+008  2.339462458e-001  -1.506194283e+002   5.044792964e-001  -6.632334314e+001   5.044216225e-001  -6.631648617e+001   3.479471238e-001  -1.410706155e+002
  9.800000000e+008  1.556238669e-001  -1.692633218e+002   5.067751365e-001  -1.050236112e+002   5.067444196e-001  -1.050145676e+002   3.024754634e-001  -1.408084838e+002
  1.000000000e+009  1.112911258e-001  -1.276162811e+002   5.007636091e-001  -1.448199527e+002   5.007697542e-001  -1.448104338e+002   2.980795691e-001  -1.297626312e+002
  1.020000000e+009  2.393851572e-001  -1.220942673e+002   4.810947928e-001   1.761636358e+002   4.811328109e-001   1.761711929e+002   3.657166001e-001  -1.269027537e+002
  1.040000000e+009  3.323611914e-001  -1.446862659e+002   4.636914260e-001   1.391529193e+002   4.637442838e-001   1.391574580e+002   4.148777525e-001  -1.356401839e+002
  1.060000000e+009  3.393992944e-001  -1.687493563e+002   4.628270658e-001   1.028499229e+002   4.628863533e-001   1.028515415e+002   3.950060567e-001  -1.470701353e+002
  1.080000000e+009  2.639896862e-001   1.738921399e+002   4.746920690e-001   6.496616216e+001   4.747532188e-001   6.496477442e+001   3.096452755e-001  -1.520578077e+002
  1.100000000e+009  1.891826273e-001  -1.765676200e+002   4.789451774e-001   2.496284338e+001   4.789967679e-001   2.495830555e+001   2.529024649e-001  -1.358178942e+002
  1.120000000e+009  2.538063682e-001  -1.646466128e+002   4.638462587e-001  -1.478714590e+001   4.638758318e-001  -1.479409317e+001   3.274501852e-001  -1.233935446e+002
  1.140000000e+009  3.297465386e-001   1.798560272e+002   4.454659699e-001  -5.228457649e+001   4.454683656e-001  -5.229250033e+001   4.058139647e-001  -1.304640053e+002
  1.160000000e+009  3.296992568e-001   1.569516944e+002   4.415513343e-001  -8.852719060e+001   4.415300863e-001  -8.853469029e+001   4.140168091e-001  -1.420706614e+002
  1.180000000e+009  2.473074089e-001   1.352970057e+002   4.520814139e-001  -1.257941475e+002   4.520387596e-001  -1.258002154e+002   3.553601564e-001  -1.499751730e+002
  1.200000000e+009  1.293166550e-001   1.359545198e+002   4.620807551e-001  -1.650726667e+002   4.620216825e-001  -1.650766364e+002   2.865854559e-001  -1.449128407e+002
  1.220000000e+009  1.428847059e-001   1.721385686e+002   4.587536610e-001   1.550411577e+002   4.586849114e-001   1.550398509e+002   2.977199948e-001  -1.324213819e+002
  1.240000000e+009  2.042361104e-001   1.603063523e+002   4.486221267e-001   1.162349014e+002   4.485548719e-001   1.162371252e+002   3.472246078e-001  -1.317201855e+002
  1.260000000e+009  1.853968884e-001   1.342324474e+002   4.433530717e-001   7.820595623e+001   4.432996597e-001   7.821119800e+001   3.628320739e-001  -1.366369631e+002
  1.280000000e+009  8.486989220e-002   1.087148225e+002   4.428146464e-001   3.979220623e+001   4.427844207e-001   3.979914701e+001   3.482700824e-001  -1.390307914e+002
  1.300000000e+009  5.920324142e-002  -1.278524574e+002   4.397406917e-001   8.684308433e-001   4.397319464e-001   8.751688803e-001   3.418930703e-001  -1.377833478e+002
  1.320000000e+009  1.736379416e-001  -1.491906862e+002   4.332019096e-001  -3.773098012e+001   4.332103754e-001  -3.772481632e+001   3.505673726e-001  -1.384702801e+002
  1.340000000e+009  2.163309304e-001  -1.748662352e+002   4.296582148e-001  -7.590412263e+001   4.296839349e-001  -7.589882958e+001   3.396226610e-001  -1.418163076e+002
  1.360000000e+009  1.803751731e-001   1.695072210e+002   4.300653689e-001  -1.146222355e+002   4.301056791e-001  -1.146193005e+002   3.007597627e-001  -1.408856742e+002
  1.380000000e+009  1.463971592e-001  -1.741749403e+002   4.255981216e-001  -1.542158949e+002   4.256413528e-001  -1.542159016e+002   2.906335730e-001  -1.306066404e+002
  1.400000000e+009  2.284677818e-001  -1.639252265e+002   4.112447322e-001   1.666469817e+002   4.112762049e-001   1.666442222e+002   3.460412843e-001  -1.254785845e+002
  1.420000000e+009  3.161315697e-001  -1.793896431e+002   3.964266861e-001   1.291806534e+002   3.964450495e-001   1.291764755e+002   3.968495286e-001  -1.316330732e+002
  1.440000000e+009  3.408642813e-001   1.604762665e+002   3.924433214e-001   9.263243174e+001   3.924493608e-001   9.262714786e+001   3.898976156e-001  -1.414015762e+002
  1.460000000e+009  2.986619695e-001   1.443906377e+002   3.991528297e-001   5.511660044e+001   3.991456029e-001   5.511079541e+001   3.221890032e-001  -1.467953437e+002
  1.480000000e+009  2.405660668e-001   1.429629530e+002   4.041156785e-001   1.575072347e+001   4.040906314e-001   1.574510647e+001   2.580360127e-001  -1.355031032e+002
  1.500000000e+009  2.619410352e-001   1.491643864e+002   3.961824915e-001  -2.399006218e+001   3.961420995e-001  -2.399420746e+001   3.028682048e-001  -1.198620440e+002
  1.520000000e+009  3.180529490e-001   1.391096835e+002   3.821696441e-001  -6.213796350e+001   3.821235914e-001  -6.213965878e+001   3.816373692e-001  -1.222654633e+002
  1.540000000e+009  3.255647332e-001   1.200478960e+002   3.756930129e-001  -9.886840512e+001   3.756482661e-001  -9.886800758e+001   4.079310462e-001  -1.314637036e+002
  1.560000000e+009  2.676736075e-001   1.005238970e+002   3.805330934e-001  -1.359159705e+002   3.804924387e-001  -1.359138237e+002   3.730250910e-001  -1.389554362e+002
  1.580000000e+009  1.724713254e-001   9.237667118e+001   3.889696458e-001  -1.745637833e+002   3.889333939e-001  -1.745602322e+002   3.128030971e-001  -1.375889762e+002
  1.600000000e+009  1.371648762e-001   1.113840398e+002   3.903036011e-001   1.457016720e+002   3.902770734e-001   1.457068889e+002   2.999906954e-001  -1.268173868e+002
  1.620000000e+009  1.715995382e-001   1.104915187e+002   3.838778966e-001   1.063457322e+002   3.838692708e-001   1.063515269e+002   3.403274845e-001  -1.215418408e+002
  1.640000000e+009  1.618038543e-001   8.831310838e+001   3.770264678e-001   6.781845504e+001   3.770331280e-001   6.782329766e+001   3.735078363e-001  -1.232968173e+002
  1.660000000e+009  8.610064858e-002   5.892174467e+001   3.732866051e-001   2.949346909e+001   3.733016256e-001   2.949637070e+001   3.819703302e-001  -1.258861490e+002
  1.680000000e+009  2.648254498e-002  -1.435190001e+002   3.704909351e-001  -9.062650158e+000   3.705066955e-001  -9.061229543e+000   3.812865315e-001  -1.270241459e+002
  1.700000000e+009  1.253609055e-001  -1.784653136e+002   3.671565628e-001  -4.765411049e+001   3.671727699e-001  -4.765396706e+001   3.795594985e-001  -1.279555119e+002
  1.720000000e+009  1.683845061e-001   1.548309850e+002   3.648512313e-001  -8.626082697e+001   3.648652711e-001  -8.626224552e+001   3.663954221e-001  -1.286171435e+002
  1.740000000e+009  1.480295509e-001   1.405258076e+002   3.629945336e-001  -1.253410215e+002   3.630022826e-001  -1.253440066e+002   3.457165390e-001  -1.256272992e+002
  1.760000000e+009  1.348137934e-001   1.554568743e+002   3.566874016e-001  -1.649051064e+002   3.566847830e-001  -1.649089747e+002   3.546266330e-001  -1.186814725e+002
  1.780000000e+009  2.101884114e-001   1.610739324e+002   3.439673437e-001   1.560941813e+002   3.439542300e-001   1.560904346e+002   4.048049917e-001  -1.160727274e+002
  1.800000000e+009  2.889216195e-001   1.447970279e+002   3.314763979e-001   1.185421405e+002   3.314571544e-001   1.185391873e+002   4.485538161e-001  -1.202717611e+002
  1.820000000e+009  3.156736503e-001   1.242099269e+002   3.269708935e-001   8.180870671e+001   3.269467586e-001   8.180641610e+001   4.484715888e-001  -1.266694182e+002
  1.840000000e+009  2.849064868e-001   1.071208126e+002   3.306800053e-001   4.426541796e+001   3.306511473e-001   4.426398695e+001   4.035647740e-001  -1.297454919e+002
  1.860000000e+009  2.357571754e-001   1.024908611e+002   3.337157569e-001   4.988780915e+000   3.336835928e-001   4.988780529e+000   3.612618679e-001  -1.235727872e+002
  1.880000000e+009  2.487383895e-001   1.061006080e+002   3.266892750e-001  -3.484467080e+001   3.266592338e-001  -3.484318205e+001   3.916973132e-001  -1.142677647e+002
  1.900000000e+009  2.999295414e-001   9.611189684e+001   3.133130577e-001  -7.323005039e+001   3.132894917e-001  -7.322737264e+001   4.596711272e-001  -1.141597362e+002
  1.920000000e+009  3.156054840e-001   7.664843933e+001   3.047294002e-001  -1.099668732e+002   3.047125150e-001  -1.099636818e+002   4.967848677e-001  -1.196428719e+002
  1.940000000e+009  2.754404044e-001   5.520739683e+001   3.057509111e-001  -1.465937569e+002   3.057386906e-001  -1.465904398e+002   4.866381345e-001  -1.250496469e+002
  1.960000000e+009  1.929774136e-001   3.961277607e+001   3.122363771e-001   1.753489975e+002   3.122300007e-001   1.753521525e+002   4.476557918e-001  -1.262686662e+002
  1.980000000e+009  1.317479327e-001   4.652759958e+001   3.150914498e-001   1.357549248e+002   3.150916751e-001   1.357573922e+002   4.263650427e-001  -1.216696116e+002
  2.000000000e+009  1.503381452e-001   5.208035161e+001   3.098114814e-001   9.602651065e+001   3.098140779e-001   9.602781231e+001   4.517973196e-001  -1.170049839e+002
  2.020000000e+009  1.620976288e-001   3.057871652e+001   3.010728087e-001   5.729183045e+001   3.010747641e-001   5.729227252e+001   4.930591809e-001  -1.168472490e+002
  2.040000000e+009  1.248738718e-001  -5.874784617e+000   2.945083133e-001   1.936078735e+001   2.945088762e-001   1.936016559e+001   5.194151567e-001  -1.192226670e+002
  2.060000000e+009  6.405699088e-002  -7.101262952e+001   2.913149519e-001  -1.846052853e+001   2.913124955e-001  -1.846167573e+001   5.268377470e-001  -1.217942846e+002
  2.080000000e+009  7.266104339e-002  -1.779359563e+002   2.901958039e-001  -5.659377275e+001   2.901899734e-001  -5.659544847e+001   5.213640383e-001  -1.235323751e+002
  2.100000000e+009  1.089354225e-001   1.299354219e+002   2.897407318e-001  -9.521258058e+001   2.897304846e-001  -9.521435492e+001   5.091719801e-001  -1.238838512e+002
  2.120000000e+009  9.941836958e-002   1.033841116e+002   2.880519623e-001  -1.344374004e+002   2.880386426e-001  -1.344389916e+002   5.004541023e-001  -1.222974520e+002
  2.140000000e+009  7.844395043e-002   1.189481616e+002   2.821716183e-001  -1.740154363e+002   2.821563123e-001  -1.740167933e+002   5.122163916e-001  -1.195811498e+002
  2.160000000e+009  1.445331274e-001   1.315588910e+002   2.714248793e-001   1.469799666e+002   2.714074071e-001   1.469787692e+002   5.472306454e-001  -1.185956665e+002
  2.180000000e+009  2.280436901e-001   1.122520977e+002   2.602992209e-001   1.093477019e+002   2.602790257e-001   1.093472074e+002   5.818954773e-001  -1.206231955e+002
  2.200000000e+009  2.735483494e-001   8.751670594e+001   2.544671295e-001   7.271694115e+001   2.544468233e-001   7.271728955e+001   5.927610094e-001  -1.241692361e+002
  2.220000000e+009  2.670088700e-001   6.473911281e+001   2.554532228e-001   3.570744393e+001   2.554346523e-001   3.570846504e+001   5.741440459e-001  -1.268337372e+002
  2.240000000e+009  2.221950364e-001   5.110348872e+001   2.585732084e-001  -2.916767061e+000   2.585573452e-001  -2.915539936e+000   5.443352535e-001  -1.260958167e+002
  2.260000000e+009  2.046071662e-001   5.307155546e+001   2.556576031e-001  -4.278781344e+001   2.556427550e-001  -4.278637644e+001   5.445577613e-001  -1.222376841e+002
  2.280000000e+009  2.525465040e-001   4.902686124e+001   2.449361847e-001  -8.192744937e+001   2.449225712e-001  -8.192602486e+001   5.847896185e-001  -1.203681746e+002
  2.300000000e+009  2.975657971e-001   3.109209788e+001   2.338682016e-001  -1.191135605e+002   2.338567724e-001  -1.191118344e+002   6.254751972e-001  -1.223248533e+002
  2.320000000e+009  2.989601717e-001   8.296311597e+000   2.292820233e-001  -1.551171585e+002   2.292727696e-001  -1.551156509e+002   6.389028761e-001  -1.258509991e+002
