! Created Sun Jun 24 21:06:41 2012
# hz S ma R 100
! 2 Port Network Data from SP1.SP block
! freq  magS11  angS11  magS21  angS21  magS12  angS12  magS22  angS22  
!     
  0.000000000e+007  0  0  1  0  1  0  0  0
  2.000000000e+007  8.381337241e-002  -5.599199754e+000   9.293800225e-001  -4.479190983e+001   9.291999224e-001  -4.478726794e+001   5.862031460e-002   5.705107549e+001
  4.000000000e+007  7.904348627e-002  -1.644487370e+001   9.032204478e-001  -8.762367915e+001   9.030880419e-001  -8.761505719e+001   8.926733417e-002  -2.017380422e+001
  6.000000000e+007  8.320020132e-002  -2.380458223e+001   8.829371955e-001  -1.300303842e+002   8.828709444e-001  -1.300191847e+002   1.133135912e-001  -7.141995146e+001
  8.000000000e+007  7.932302509e-002  -4.323543100e+001   8.658989170e-001  -1.721737875e+002   8.659073903e-001  -1.721619093e+002   1.051983016e-001  -1.099083319e+002
  1.000000000e+008  4.446573471e-002  -5.709652701e+001   8.518123065e-001   1.457478935e+002   8.518920343e-001   1.457583067e+002   6.198064999e-002  -1.297196816e+002
  1.200000000e+008  4.394791209e-002   9.477070386e+000   8.373580204e-001   1.036299736e+002   8.374882060e-001   1.036371829e+002   4.838377896e-002  -7.964047461e+001
  1.400000000e+008  1.068238709e-001  -5.171869802e+000   8.207195284e-001   6.168444801e+001   8.208751246e-001   6.168751913e+001   1.047277358e-001  -7.945635220e+001
  1.600000000e+008  1.379447687e-001  -3.908302907e+001   8.055473861e-001   2.007088093e+001   8.057061275e-001   2.006948845e+001   1.331999937e-001  -1.018551324e+002
  1.800000000e+008  1.112253614e-001  -7.292120142e+001   7.951389199e-001  -2.149153591e+001   7.952758457e-001  -2.149749554e+001   1.120648776e-001  -1.188072796e+002
  2.000000000e+008  3.896853641e-002  -7.287681720e+001   7.855288772e-001  -6.335443549e+001   7.856181571e-001  -6.336420820e+001   8.016715761e-002  -1.015224894e+002
  2.200000000e+008  9.469168608e-002  -1.065152085e+001   7.703983691e-001  -1.052663826e+002   7.704235737e-001  -1.052780367e+002   1.320045831e-001  -8.213352088e+001
  2.400000000e+008  1.771492106e-001  -4.086506975e+001   7.527641265e-001  -1.466314342e+002   7.527248689e-001  -1.466427149e+002   1.939134811e-001  -9.774162846e+001
  2.600000000e+008  1.976518943e-001  -7.720898987e+001   7.423113063e-001   1.724576919e+002   7.422191810e-001   1.724485438e+002   1.996934033e-001  -1.196973667e+002
  2.800000000e+008  1.404333694e-001  -1.111981625e+002   7.402170898e-001   1.311391752e+002   7.400868874e-001   1.311332733e+002   1.401386583e-001  -1.332550723e+002
  3.000000000e+008  4.277846799e-002  -9.453322670e+001   7.343243674e-001   8.902240666e+001   7.341727977e-001   8.902074830e+001   9.775766615e-002  -9.950959789e+001
  3.200000000e+008  1.293023177e-001  -4.927958363e+001   7.160735431e-001   4.704294972e+001   7.159271309e-001   4.704621504e+001   1.872382513e-001  -8.567847798e+001
  3.400000000e+008  2.098986125e-001  -8.197950130e+001   6.963588261e-001   6.167114461e+000   6.962454583e-001   6.174915919e+000   2.591915478e-001  -1.036370474e+002
  3.600000000e+008  2.097096488e-001  -1.201160635e+002   6.896834516e-001  -3.417852313e+001   6.896229687e-001  -3.416800439e+001   2.557880959e-001  -1.239490164e+002
  3.800000000e+008  1.240880292e-001  -1.599729929e+002   6.932966252e-001  -7.537499124e+001   6.932886755e-001  -7.536394002e+001   1.855741378e-001  -1.337416315e+002
  4.000000000e+008  1.576461469e-002  -4.154589583e+001   6.895761734e-001  -1.176395948e+002   6.896162850e-001  -1.176293884e+002   1.478281375e-001  -1.102718783e+002
  4.200000000e+008  1.390048436e-001  -6.923608882e+001   6.719728859e-001  -1.595612733e+002   6.720549640e-001  -1.595528819e+002   2.214113304e-001  -1.002223678e+002
  4.400000000e+008  1.886899426e-001  -1.111082543e+002   6.555374978e-001   1.596648316e+002   6.556537405e-001   1.596696366e+002   2.738972289e-001  -1.122571410e+002
  4.600000000e+008  1.455184326e-001  -1.564476669e+002   6.510657880e-001   1.190553309e+002   6.511926154e-001   1.190550687e+002   2.612868970e-001  -1.239418769e+002
  4.800000000e+008  3.838886241e-002   1.164959726e+002   6.498786867e-001   7.753158885e+001   6.499874398e-001   7.752661263e+001   2.242015341e-001  -1.230117362e+002
  5.000000000e+008  1.233159411e-001  -3.336969514e+001   6.389999208e-001   3.565950138e+001   6.390726906e-001   3.565141833e+001   2.412733972e-001  -1.149815131e+002
  5.200000000e+008  2.060847795e-001  -8.063944819e+001   6.239530358e-001  -5.385544798e+000   6.239869189e-001  -5.395323936e+000   2.803667238e-001  -1.192153228e+002
  5.400000000e+008  1.933861510e-001  -1.200220066e+002   6.178576540e-001  -4.599455977e+001   6.178478730e-001  -4.600535176e+001   2.719164709e-001  -1.278200957e+002
  5.600000000e+008  8.413986256e-002  -1.454697391e+002   6.171268556e-001  -8.748136649e+001   6.170668600e-001  -8.749140269e+001   2.295291016e-001  -1.255034400e+002
  5.800000000e+008  1.029876980e-001  -5.386614626e+001   6.051767201e-001  -1.296522245e+002   6.050737807e-001  -1.296588542e+002   2.529115313e-001  -1.122192164e+002
  6.000000000e+008  2.428330579e-001  -8.008459695e+001   5.826480735e-001  -1.706953905e+002   5.825335441e-001  -1.706971336e+002   3.291730284e-001  -1.156475653e+002
  6.200000000e+008  2.981116752e-001  -1.134253448e+002   5.698742284e-001   1.497517821e+002   5.697724915e-001   1.497543042e+002   3.551133854e-001  -1.293216105e+002
  6.400000000e+008  2.475435744e-001  -1.438684859e+002   5.755438750e-001   1.097789578e+002   5.754573314e-001   1.097844442e+002   2.989350073e-001  -1.411259267e+002
  6.600000000e+008  1.221422428e-001  -1.497905243e+002   5.825839985e-001   6.776091396e+001   5.825193356e-001   6.776918419e+001   2.149018324e-001  -1.321470099e+002
  6.800000000e+008  1.627771129e-001  -1.041244127e+002   5.682665505e-001   2.510415486e+001   5.682404753e-001   2.511472648e+001   2.667362990e-001  -1.110218177e+002
  7.000000000e+008  2.790320138e-001  -1.231046969e+002   5.433131618e-001  -1.556633281e+001   5.433365353e-001  -1.555574104e+001   3.648500622e-001  -1.175660492e+002
  7.200000000e+008  3.034199313e-001  -1.535465111e+002   5.336387814e-001  -5.456419951e+001   5.336982620e-001  -5.455630741e+001   3.883120142e-001  -1.321500077e+002
  7.400000000e+008  2.221139325e-001   1.756134246e+002   5.434913795e-001  -9.441347823e+001   5.435684722e-001  -9.440926267e+001   3.285508205e-001  -1.429080510e+002
  7.600000000e+008  7.371500630e-002   1.728545934e+002   5.523666605e-001  -1.364615175e+002   5.524500142e-001  -1.364604229e+002   2.544163695e-001  -1.359795259e+002
  7.800000000e+008  1.369200873e-001  -1.213005385e+002   5.421283036e-001  -1.789368194e+002   5.422112072e-001  -1.789390460e+002   2.884392372e-001  -1.216792781e+002
  8.000000000e+008  2.199118898e-001  -1.487757465e+002   5.254943255e-001   1.401862792e+002   5.255633843e-001   1.401801864e+002   3.520265806e-001  -1.253106239e+002
  8.200000000e+008  1.939860355e-001   1.756472760e+002   5.201395727e-001   1.001117101e+002   5.201745866e-001   1.001024737e+002   3.585388196e-001  -1.337579746e+002
  8.400000000e+008  6.965385377e-002   1.347254364e+002   5.220238032e-001   5.909633481e+001   5.220171177e-001   5.908647900e+001   3.266395791e-001  -1.361262850e+002
  8.600000000e+008  9.481071248e-002  -7.497468564e+001   5.164785483e-001   1.732357361e+001   5.164382651e-001   1.731538980e+001   3.247616778e-001  -1.321282880e+002
  8.800000000e+008  2.111762429e-001  -1.135427740e+002   5.047316782e-001  -2.368617208e+001   5.046721626e-001  -2.369214613e+001   3.511903351e-001  -1.336262053e+002
  9.000000000e+008  2.264997763e-001  -1.461782542e+002   5.000018800e-001  -6.403313889e+001   4.999260982e-001  -6.403684178e+001   3.428968319e-001  -1.394267634e+002
  9.200000000e+008  1.410565814e-001  -1.635646419e+002   5.016123964e-001  -1.053110256e+002   5.015226653e-001  -1.053109389e+002   2.981822403e-001  -1.384968436e+002
  9.400000000e+008  1.230241562e-001  -1.154077928e+002   4.932345277e-001  -1.475996072e+002   4.931553764e-001  -1.475948552e+002   3.054918314e-001  -1.274927981e+002
  9.600000000e+008  2.587324951e-001  -1.204451641e+002   4.724206327e-001   1.712784110e+002   4.723740288e-001   1.712861149e+002   3.768106214e-001  -1.275066090e+002
  9.800000000e+008  3.332191778e-001  -1.457242977e+002   4.585097678e-001   1.321550079e+002   4.584926840e-001   1.321631348e+002   4.107265994e-001  -1.379616790e+002
  1.000000000e+009  3.092465963e-001  -1.701127378e+002   4.628995065e-001   9.302330038e+001   4.629024372e-001   9.303111298e+001   3.655481655e-001  -1.487090336e+002
  1.020000000e+009  2.120392498e-001  -1.799182066e+002   4.737246065e-001   5.165739626e+001   4.737501432e-001   5.166457279e+001   2.740666021e-001  -1.461649799e+002
  1.040000000e+009  2.009613452e-001  -1.583312561e+002   4.678950381e-001   8.909364842e+000   4.679434589e-001   8.914672667e+000   2.836107238e-001  -1.262428571e+002
  1.060000000e+009  2.960363143e-001  -1.639242406e+002   4.478112653e-001  -3.215513504e+001   4.478714164e-001  -3.215321718e+001   3.777476002e-001  -1.262120540e+002
  1.080000000e+009  3.311746346e-001   1.734907800e+002   4.368070925e-001  -7.109150623e+001   4.368633773e-001  -7.109334740e+001   4.168355469e-001  -1.374958838e+002
  1.100000000e+009  2.719824439e-001   1.492445803e+002   4.434132501e-001  -1.102785738e+002   4.434554935e-001  -1.102831926e+002   3.763757472e-001  -1.477247331e+002
  1.120000000e+009  1.483221492e-001   1.400791126e+002   4.548662425e-001  -1.515796615e+002   4.548921829e-001  -1.515858619e+002   3.007811681e-001  -1.466409981e+002
  1.140000000e+009  1.305015057e-001   1.795389437e+002   4.536504892e-001   1.659857816e+002   4.536573190e-001   1.659784347e+002   2.957418181e-001  -1.338781515e+002
  1.160000000e+009  2.018454599e-001   1.719043949e+002   4.430913234e-001   1.245623207e+002   4.430742430e-001   1.245544236e+002   3.470860820e-001  -1.319343736e+002
  1.180000000e+009  1.892963437e-001   1.452807266e+002   4.371610502e-001   8.410040943e+001   4.371164299e-001   8.409385091e+001   3.653511002e-001  -1.371852563e+002
  1.200000000e+009  8.478898165e-002   1.211313542e+002   4.367066386e-001   4.322753969e+001   4.366459000e-001   4.322416438e+001   3.488582607e-001  -1.398021589e+002
  1.220000000e+009  7.146020650e-002  -1.256984655e+002   4.332160620e-001   1.781459488e+000   4.331552955e-001   1.781162548e+000   3.429580527e-001  -1.383177897e+002
  1.240000000e+009  1.859259985e-001  -1.467249240e+002   4.261355604e-001  -3.923376048e+001   4.260809175e-001  -3.923165499e+001   3.532337453e-001  -1.394324208e+002
  1.260000000e+009  2.166624656e-001  -1.723691264e+002   4.230869048e-001  -7.984898745e+001   4.230389747e-001  -7.984471828e+001   3.379531873e-001  -1.430607722e+002
  1.280000000e+009  1.665612745e-001   1.765450329e+002   4.232513525e-001  -1.212349379e+002   4.232197019e-001  -1.212284646e+002   2.977690984e-001  -1.405010453e+002
  1.300000000e+009  1.614289419e-001  -1.598733076e+002   4.158264138e-001  -1.633579953e+002   4.158184570e-001  -1.633511320e+002   3.058752698e-001  -1.299845795e+002
  1.320000000e+009  2.634950931e-001  -1.607740380e+002   3.996063375e-001   1.555684976e+002   3.996182200e-001   1.555742263e+002   3.686849345e-001  -1.292248883e+002
  1.340000000e+009  3.316262780e-001   1.798285145e+002   3.882411439e-001   1.162477356e+002   3.882638069e-001   1.162518331e+002   3.992676373e-001  -1.380454343e+002
  1.360000000e+009  3.218544306e-001   1.598911114e+002   3.901997829e-001   7.703121495e+001   3.902284504e-001   7.703344933e+001   3.595668314e-001  -1.472621372e+002
  1.380000000e+009  2.569658392e-001   1.503661955e+002   3.978392481e-001   3.601086168e+001   3.978723065e-001   3.601137260e+001   2.779855975e-001  -1.450604206e+002
  1.400000000e+009  2.413254084e-001   1.579892426e+002   3.951416023e-001  -6.327381254e+000   3.951720362e-001  -6.329379089e+000   2.758967552e-001  -1.267645219e+002
  1.420000000e+009  3.004007489e-001   1.536253793e+002   3.815731761e-001  -4.753537681e+001   3.815934686e-001  -4.753965457e+001   3.570573176e-001  -1.238550851e+002
  1.440000000e+009  3.247414002e-001   1.354763088e+002   3.724913453e-001  -8.693394405e+001   3.724950405e-001  -8.693967048e+001   3.991213410e-001  -1.327113950e+002
  1.460000000e+009  2.760712443e-001   1.151523438e+002   3.756485815e-001  -1.262567726e+002   3.756374030e-001  -1.262623899e+002   3.720046646e-001  -1.414793679e+002
  1.480000000e+009  1.790351316e-001   1.055542389e+002   3.841728542e-001  -1.671894053e+002   3.841481057e-001  -1.671944237e+002   3.090077102e-001  -1.414545693e+002
  1.500000000e+009  1.401145322e-001   1.248282918e+002   3.858533099e-001   1.506439627e+002   3.858157508e-001   1.506400275e+002   2.920459630e-001  -1.305950631e+002
  1.520000000e+009  1.751835994e-001   1.239278313e+002   3.795900049e-001   1.088760489e+002   3.795439373e-001   1.088742540e+002   3.313279575e-001  -1.255671078e+002
  1.540000000e+009  1.577918741e-001   1.021947743e+002   3.735150857e-001   6.793071552e+001   3.734684455e-001   6.793138080e+001   3.589852094e-001  -1.278469418e+002
  1.560000000e+009  6.875434819e-002   8.106392798e+001   3.705320928e-001   2.703744246e+001   3.704930548e-001   2.704030478e+001   3.607587887e-001  -1.301273817e+002
  1.580000000e+009  5.907991429e-002  -1.616028429e+002   3.674408058e-001  -1.411953475e+001   3.674116778e-001  -1.411554517e+001   3.589192673e-001  -1.306205723e+002
  1.600000000e+009  1.523476219e-001   1.792603412e+002   3.636105996e-001  -5.518189180e+001   3.635913568e-001  -5.517705999e+001   3.566966941e-001  -1.316844346e+002
  1.620000000e+009  1.772911858e-001   1.571626362e+002   3.614305200e-001  -9.628750885e+001   3.614237210e-001  -9.628247868e+001   3.375051800e-001  -1.320921926e+002
  1.640000000e+009  1.483008447e-001   1.526846758e+002   3.587495047e-001  -1.380061819e+002   3.587542810e-001  -1.380017541e+002   3.175503993e-001  -1.268109930e+002
  1.660000000e+009  1.737144577e-001   1.687472784e+002   3.498103185e-001  -1.799322670e+002   3.498239230e-001  -1.799294460e+002   3.448465431e-001  -1.194892939e+002
  1.680000000e+009  2.605291190e-001   1.618784959e+002   3.364461201e-001   1.392806346e+002   3.364612203e-001   1.392817798e+002   3.996271549e-001  -1.205112882e+002
  1.700000000e+009  3.124620089e-001   1.428056681e+002   3.281367477e-001   9.984954052e+001   3.281505055e-001   9.984920318e+001   4.199233586e-001  -1.273566405e+002
  1.720000000e+009  3.009325112e-001   1.243328591e+002   3.293825826e-001   6.025940977e+001   3.293932469e-001   6.025774398e+001   3.841301903e-001  -1.329588013e+002
  1.740000000e+009  2.522734996e-001   1.158807308e+002   3.334588927e-001   1.902150392e+001   3.334649475e-001   1.901842912e+001   3.279356271e-001  -1.288240630e+002
  1.760000000e+009  2.495504160e-001   1.187461192e+002   3.289944570e-001  -2.320651027e+001   3.289913154e-001  -2.321067251e+001   3.418619860e-001  -1.167917988e+002
  1.780000000e+009  2.959104294e-001   1.108822777e+002   3.168999219e-001  -6.425667214e+001   3.168856296e-001  -6.426080355e+001   4.121045366e-001  -1.151611904e+002
  1.800000000e+009  3.101622752e-001   9.232482311e+001   3.088412101e-001  -1.036380804e+002   3.088197583e-001  -1.036412380e+002   4.513443731e-001  -1.212912287e+002
  1.820000000e+009  2.645733004e-001   7.188248061e+001   3.104291156e-001  -1.429577944e+002   3.104019957e-001  -1.429599821e+002   4.360817940e-001  -1.272643787e+002
  1.840000000e+009  1.799498015e-001   6.015328159e+001   3.165761066e-001   1.762037184e+002   3.165445417e-001   1.762028045e+002   3.925212549e-001  -1.273965527e+002
  1.860000000e+009  1.373598356e-001   7.107669832e+001   3.176605606e-001   1.340489090e+002   3.176281142e-001   1.340497441e+002   3.799396806e-001  -1.208724221e+002
  1.880000000e+009  1.574783863e-001   6.859423066e+001   3.114901016e-001   9.213708039e+001   3.114622633e-001   9.213935478e+001   4.148698848e-001  -1.167001148e+002
  1.900000000e+009  1.431012448e-001   4.361736124e+001   3.041811056e-001   5.117306559e+001   3.041602965e-001   5.117626291e+001   4.517463490e-001  -1.177359985e+002
  1.920000000e+009  7.391686752e-002   3.390349988e+000   2.996204845e-001   1.061561113e+001   2.996062883e-001   1.061913420e+001   4.681977669e-001  -1.203216700e+002
  1.940000000e+009  3.763497316e-002  -1.474392163e+002   2.971088894e-001  -3.008121127e+001   2.970999613e-001  -3.007772239e+001   4.692967935e-001  -1.223661181e+002
  1.960000000e+009  1.069540691e-001   1.525521941e+002   2.954318738e-001  -7.104222154e+001   2.954289211e-001  -7.103917780e+001   4.612678809e-001  -1.233928440e+002
  1.980000000e+009  1.253509679e-001   1.240297529e+002   2.938878125e-001  -1.124330132e+002   2.938902930e-001  -1.124308444e+002   4.484654851e-001  -1.225572324e+002
  2.000000000e+009  1.026805546e-001   1.222088964e+002   2.897969221e-001  -1.543675332e+002   2.898012903e-001  -1.543665906e+002   4.489125082e-001  -1.192635951e+002
  2.020000000e+009  1.413636711e-001   1.399784668e+002   2.803973645e-001   1.638623138e+002   2.804008914e-001   1.638621966e+002   4.804669377e-001  -1.166722250e+002
  2.040000000e+009  2.260998098e-001   1.277763837e+002   2.688425916e-001   1.233634884e+002   2.688436307e-001   1.233621008e+002   5.219869949e-001  -1.181588284e+002
  2.060000000e+009  2.771318123e-001   1.052664655e+002   2.619842995e-001   8.406894132e+001   2.619812141e-001   8.406700135e+001   5.381900188e-001  -1.222646691e+002
  2.080000000e+009  2.716870141e-001   8.381819119e+001   2.624438474e-001   4.452102802e+001   2.624367221e-001   4.451860394e+001   5.176514708e-001  -1.254413771e+002
  2.100000000e+009  2.283654282e-001   7.206075847e+001   2.650353277e-001   3.344288736e+000   2.650227619e-001   3.341744765e+000   4.845803215e-001  -1.239669665e+002
  2.120000000e+009  2.207212558e-001   7.357854136e+001   2.609489743e-001  -3.891304513e+001   2.609314948e-001  -3.891518825e+001   4.922016829e-001  -1.188586153e+002
  2.140000000e+009  2.677161385e-001   6.595055387e+001   2.499432725e-001  -8.012364662e+001   2.499232228e-001  -8.012487743e+001   5.414735441e-001  -1.174672095e+002
  2.160000000e+009  2.955099750e-001   4.629481481e+001   2.408259964e-001  -1.194663616e+002   2.408053707e-001  -1.194666906e+002   5.794480661e-001  -1.205847168e+002
  2.180000000e+009  2.717068240e-001   2.331163224e+001   2.393456853e-001  -1.582428849e+002   2.393247098e-001  -1.582421665e+002   5.810382759e-001  -1.245746722e+002
  2.200000000e+009  2.037428217e-001   4.483275925e+000   2.436037917e-001   1.617492527e+002   2.435843720e-001   1.617507039e+002   5.549617949e-001  -1.262598241e+002
  2.220000000e+009  1.427522266e-001   3.367559593e+000   2.462015737e-001   1.199970196e+002   2.461847993e-001   1.199988281e+002   5.361037230e-001  -1.241302950e+002
  2.240000000e+009  1.506161512e-001   6.149508448e+000   2.419550415e-001   7.784854015e+001   2.419413575e-001   7.785041018e+001   5.536797364e-001  -1.212689468e+002
  2.260000000e+009  1.643136630e-001  -1.506048846e+001   2.340098325e-001   3.678349341e+001   2.339981043e-001   3.678559979e+001   5.887725473e-001  -1.212621930e+002
  2.280000000e+009  1.362453341e-001  -5.090488220e+001   2.280325385e-001  -3.192684104e+000   2.280230460e-001  -3.190821752e+000   6.120064126e-001  -1.233705476e+002
  2.300000000e+009  8.106926291e-002  -1.043556309e+002   2.260091285e-001  -4.299959390e+001   2.260013893e-001  -4.299792755e+001   6.156468738e-001  -1.257066280e+002
  2.320000000e+009  5.435767394e-002   1.630530750e+002   2.265109442e-001  -8.343014957e+001   2.265039154e-001  -8.342894884e+001   6.058745662e-001  -1.270390590e+002
