! Created Sun Jun 24 21:07:34 2012
# hz S ma R 100
! 2 Port Network Data from SP1.SP block
! freq  magS11  angS11  magS21  angS21  magS12  angS12  magS22  angS22  
!     
  0.000000000e+007  0  0  1  0  1  0  0  0
  2.000000000e+007  8.825445675e-002  -6.823809717e+000   9.227547628e-001  -5.022190859e+001   9.225756997e-001  -5.021726678e+001   6.532164591e-002   4.299412392e+001
  4.000000000e+007  8.180647180e-002  -1.897890077e+001   8.935791940e-001  -9.823683873e+001   8.934480383e-001  -9.822819002e+001   9.956874924e-002  -3.459141436e+001
  6.000000000e+007  8.180504087e-002  -2.932991823e+001   8.713228699e-001  -1.457589727e+002   8.712579991e-001  -1.457477421e+002   1.115692282e-001  -8.782800530e+001
  8.000000000e+007  6.284311855e-002  -4.676387691e+001   8.531934743e-001   1.669560340e+002   8.532027064e-001   1.669678699e+002   7.911958664e-002  -1.257556364e+002
  1.000000000e+008  3.663272807e-002  -1.152852073e+001   8.367261013e-001   1.196831644e+002   8.368035686e-001   1.196934832e+002   3.276616442e-002  -9.726131282e+001
  1.200000000e+008  9.191069183e-002  -4.417779307e-001   8.183814397e-001   7.253510286e+001   8.185065482e-001   7.254237632e+001   8.753938275e-002  -7.253564926e+001
  1.400000000e+008  1.295422103e-001  -3.327688427e+001   8.009421093e-001   2.575119735e+001   8.010946068e-001   2.575449091e+001   1.229666220e-001  -9.878809442e+001
  1.600000000e+008  1.029493400e-001  -6.741321708e+001   7.885229445e-001  -2.094138171e+001   7.886821942e-001  -2.094279418e+001   9.927636357e-002  -1.186337159e+002
  1.800000000e+008  3.992866904e-002  -4.611327042e+001   7.764951087e-001  -6.792628658e+001   7.766287514e-001  -6.793254535e+001   7.363799578e-002  -9.165734534e+001
  2.000000000e+008  1.163916274e-001  -1.734099717e+001   7.588028919e-001  -1.148146238e+002   7.588849921e-001  -1.148243999e+002   1.412757713e-001  -8.286406891e+001
  2.200000000e+008  1.798325405e-001  -5.250302855e+001   7.419841010e-001  -1.610609524e+002   7.420079926e-001  -1.610722519e+002   1.866270847e-001  -1.057992007e+002
  2.400000000e+008  1.606736849e-001  -9.093933146e+001   7.347809742e-001   1.527953617e+002   7.347477521e-001   1.527841683e+002   1.552124516e-001  -1.284848060e+002
  2.600000000e+008  6.614335946e-002  -1.088240870e+002   7.297723097e-001   1.058778718e+002   7.296837785e-001   1.058683146e+002   8.505759606e-002  -1.134414148e+002
  2.800000000e+008  1.002834377e-001  -4.301527064e+001   7.134428050e-001   5.874591819e+001   7.133121471e-001   5.873978835e+001   1.542902483e-001  -8.175777256e+001
  3.000000000e+008  1.877398189e-001  -7.447506935e+001   6.930809195e-001   1.264110921e+001   6.929341405e-001   1.263991310e+001   2.341391639e-001  -1.005408934e+002
  3.200000000e+008  1.854452404e-001  -1.159966964e+002   6.854100434e-001  -3.289123412e+001   6.852764093e-001  -3.288754509e+001   2.283830381e-001  -1.233171162e+002
  3.400000000e+008  8.749265562e-002  -1.580344164e+002   6.865941854e-001  -7.936650657e+001   6.864892586e-001  -7.935930706e+001   1.525356378e-001  -1.295210889e+002
  3.600000000e+008  5.712056145e-002  -3.988408917e+001   6.772511856e-001  -1.266757154e+002   6.771846589e-001  -1.266659218e+002   1.519278285e-001  -9.957408750e+001
  3.800000000e+008  1.569389492e-001  -8.085866096e+001   6.578300566e-001  -1.731756883e+002   6.578128143e-001  -1.731640846e+002   2.317210750e-001  -1.022645213e+002
  4.000000000e+008  1.572422744e-001  -1.277054188e+002   6.466523785e-001   1.411856197e+002   6.466951752e-001   1.411967073e+002   2.501580373e-001  -1.174904770e+002
  4.200000000e+008  5.882681133e-002   1.717369852e+002   6.442929969e-001   9.494186856e+001   6.443808598e-001   9.494987366e+001   2.120362410e-001  -1.224205747e+002
  4.400000000e+008  9.325764149e-002  -1.946322059e+001   6.348559086e-001   4.802362383e+001   6.349636492e-001   4.802771178e+001   2.140934771e-001  -1.127441964e+002
  4.600000000e+008  1.875442299e-001  -7.175947028e+001   6.190862403e-001   1.807805799e+000   6.191989722e-001   1.808130703e+000   2.565176696e-001  -1.157402028e+002
  4.800000000e+008  1.732373577e-001  -1.143943606e+002   6.117873407e-001  -4.391026536e+001   6.118967240e-001  -4.391434755e+001   2.483837233e-001  -1.250463497e+002
  5.000000000e+008  5.651724137e-002  -1.273423353e+002   6.085959130e-001  -9.055322375e+001   6.086764997e-001  -9.056183916e+001   2.104560689e-001  -1.198090249e+002
  5.200000000e+008  1.417051761e-001  -5.372822521e+001   5.924618909e-001  -1.375392882e+002   5.924902492e-001  -1.375501584e+002   2.573606896e-001  -1.087403547e+002
  5.400000000e+008  2.567850305e-001  -8.766853680e+001   5.718593941e-001   1.770050322e+002   5.718397676e-001   1.769946012e+002   3.232583065e-001  -1.184528816e+002
  5.600000000e+008  2.578706191e-001  -1.235978914e+002   5.679763721e-001   1.323347665e+002   5.679251567e-001   1.323258649e+002   3.063866957e-001  -1.337817009e+002
  5.800000000e+008  1.464642537e-001  -1.456464583e+002   5.750252443e-001   8.601815445e+001   5.749402364e-001   8.601127161e+001   2.186334404e-001  -1.344070696e+002
  6.000000000e+008  1.300063324e-001  -9.755090939e+001   5.651881222e-001   3.836631282e+001   5.650773244e-001   3.836333685e+001   2.357991220e-001  -1.098527420e+002
  6.200000000e+008  2.529405483e-001  -1.129691303e+002   5.408345863e-001  -7.583200145e+000   5.407292804e-001  -7.580817738e+000   3.383101449e-001  -1.143342764e+002
  6.400000000e+008  2.753183993e-001  -1.467876343e+002   5.312708862e-001  -5.175886882e+001   5.311912705e-001  -5.175273165e+001   3.603131946e-001  -1.302632474e+002
  6.600000000e+008  1.753259212e-001  -1.795190837e+002   5.405096624e-001  -9.706354832e+001   5.404561297e-001  -9.705552515e+001   2.901451888e-001  -1.396760592e+002
  6.800000000e+008  5.806869097e-002  -1.333568539e+002   5.426073612e-001  -1.444659622e+002   5.425799901e-001  -1.444563252e+002   2.421085920e-001  -1.260139427e+002
  7.000000000e+008  1.761838340e-001  -1.217999622e+002   5.265346544e-001   1.686499439e+002   5.265472639e-001   1.686605798e+002   3.078282787e-001  -1.188797302e+002
  7.200000000e+008  2.040215429e-001  -1.582494685e+002   5.143109426e-001   1.233980163e+002   5.143659145e-001   1.234068830e+002   3.461304751e-001  -1.275897303e+002
  7.400000000e+008  1.055808432e-001   1.610617015e+002   5.142170641e-001   7.779712489e+001   5.142955175e-001   7.780179826e+001   3.203256777e-001  -1.334590983e+002
  7.600000000e+008  6.411381462e-002  -6.276612250e+001   5.102424045e-001   3.106708514e+001   5.103224894e-001   3.106798255e+001   3.067893316e-001  -1.296325300e+002
  7.800000000e+008  1.954958766e-001  -1.030358610e+002   4.979100842e-001  -1.509539725e+001   4.979863626e-001  -1.509758100e+001   3.355227513e-001  -1.300592700e+002
  8.000000000e+008  2.104007282e-001  -1.387050528e+002   4.921723042e-001  -6.048333174e+001   4.922399469e-001  -6.048932522e+001   3.292729671e-001  -1.361883053e+002
  8.200000000e+008  1.140404230e-001  -1.505915080e+002   4.920270123e-001  -1.069188037e+002   4.920623304e-001  -1.069283202e+002   2.877826551e-001  -1.336854061e+002
  8.400000000e+008  1.544710990e-001  -1.009685978e+002   4.792116571e-001  -1.540501884e+002   4.792047793e-001  -1.540600925e+002   3.180271793e-001  -1.239063468e+002
  8.600000000e+008  2.836679480e-001  -1.206074875e+002   4.588277990e-001   1.606493146e+002   4.587950230e-001   1.606413517e+002   3.855185356e-001  -1.292225884e+002
  8.800000000e+008  3.100103929e-001  -1.494087605e+002   4.536258049e-001   1.167704567e+002   4.535770328e-001   1.167640775e+002   3.806654818e-001  -1.415555572e+002
  9.000000000e+008  2.258728300e-001  -1.688327150e+002   4.631973016e-001   7.126920440e+001   4.631273857e-001   7.126490312e+001   2.962966920e-001  -1.456392491e+002
  9.200000000e+008  1.763177840e-001  -1.489087403e+002   4.611726727e-001   2.363658637e+001   4.610901164e-001   2.363648371e+001   2.739437438e-001  -1.273477467e+002
  9.400000000e+008  2.752164355e-001  -1.500869992e+002   4.413046120e-001  -2.266060026e+001   4.412370598e-001  -2.265634208e+001   3.673362869e-001  -1.247320475e+002
  9.600000000e+008  3.116999233e-001  -1.752136690e+002   4.301509964e-001  -6.657996605e+001   4.301074292e-001  -6.657346629e+001   4.065783440e-001  -1.366292390e+002
  9.800000000e+008  2.347791199e-001   1.589850920e+002   4.377090828e-001  -1.110326758e+002   4.376833638e-001  -1.110253391e+002   3.553600689e-001  -1.462204991e+002
  1.000000000e+009  1.124956217e-001   1.666147038e+002   4.455544050e-001  -1.578671580e+002   4.455464171e-001  -1.578588719e+002   2.908535954e-001  -1.401979717e+002
  1.020000000e+009  1.668966665e-001  -1.637292810e+002   4.378115910e-001   1.549666191e+002   4.378331921e-001   1.549749765e+002   3.233720244e-001  -1.304277675e+002
  1.040000000e+009  2.053936345e-001   1.727545884e+002   4.276844674e-001   1.093050491e+002   4.277331864e-001   1.093107233e+002   3.652254708e-001  -1.343137477e+002
  1.060000000e+009  1.262039254e-001   1.442770500e+002   4.258212210e-001   6.379912093e+001   4.258779597e-001   6.380072110e+001   3.553789345e-001  -1.391866573e+002
  1.080000000e+009  4.862434914e-002  -1.281775460e+002   4.234473854e-001   1.741175312e+001   4.234976988e-001   1.741047367e+001   3.414156888e-001  -1.380893750e+002
  1.100000000e+009  1.777176709e-001  -1.338231848e+002   4.156108558e-001  -2.870313662e+001   4.156555752e-001  -2.870664648e+001   3.546320066e-001  -1.383961613e+002
  1.120000000e+009  2.143432259e-001  -1.613816269e+002   4.115101648e-001  -7.422696480e+001   4.115438141e-001  -7.423357644e+001   3.435596155e-001  -1.424971597e+002
  1.140000000e+009  1.560133771e-001  -1.704903983e+002   4.109906436e-001  -1.206180499e+002   4.109961663e-001  -1.206265787e+002   3.045963784e-001  -1.397900472e+002
  1.160000000e+009  1.778260363e-001  -1.439700301e+002   4.010513770e-001  -1.676357031e+002   4.010308176e-001  -1.676432907e+002   3.260376099e-001  -1.305739479e+002
  1.180000000e+009  2.874735580e-001  -1.539768028e+002   3.845216363e-001   1.469737890e+002   3.844884179e-001   1.469680469e+002   3.868493782e-001  -1.338010321e+002
  1.200000000e+009  3.246983194e-001  -1.766837176e+002   3.787054331e-001   1.030790597e+002   3.786630611e-001   1.030747377e+002   3.873007884e-001  -1.442812355e+002
  1.220000000e+009  2.713772442e-001   1.665661121e+002   3.854333693e-001   5.800785576e+001   3.853790231e-001   5.800559579e+001   3.136366280e-001  -1.488901630e+002
  1.240000000e+009  2.253877535e-001   1.720091575e+002   3.865185046e-001   1.086815699e+001   3.864609288e-001   1.086942031e+001   2.753146272e-001  -1.340528045e+002
  1.260000000e+009  2.837569938e-001   1.721605165e+002   3.735793784e-001  -3.560701037e+001   3.735338498e-001  -3.560277337e+001   3.497216131e-001  -1.275876657e+002
  1.280000000e+009  3.146848573e-001   1.532370579e+002   3.637824395e-001  -7.995216250e+001   3.637541269e-001  -7.994647602e+001   3.952386772e-001  -1.365311527e+002
  1.300000000e+009  2.565342034e-001   1.321164072e+002   3.676195209e-001  -1.242717415e+002   3.676032286e-001  -1.242658860e+002   3.611046884e-001  -1.454083619e+002
  1.320000000e+009  1.554891974e-001   1.300287426e+002   3.751449976e-001  -1.705241636e+002   3.751423876e-001  -1.705177535e+002   2.994951324e-001  -1.426435577e+002
  1.340000000e+009  1.583358805e-001   1.508177430e+002   3.731197023e-001   1.423578966e+002   3.731376244e-001   1.423639058e+002   3.071234650e-001  -1.325001501e+002
  1.360000000e+009  1.822583837e-001   1.376025223e+002   3.660545269e-001   9.614946146e+001   3.660865740e-001   9.615272140e+001   3.448921352e-001  -1.323786816e+002
  1.380000000e+009  1.175370452e-001   1.168656507e+002   3.624383933e-001   5.040043997e+001   3.624712024e-001   5.040092196e+001   3.500567592e-001  -1.356492624e+002
  1.400000000e+009  4.919901537e-002  -1.770061110e+002   3.597608990e-001   4.258041885e+000   3.597875719e-001   4.256398458e+000   3.434673742e-001  -1.360267807e+002
  1.420000000e+009  1.518747880e-001  -1.655786990e+002   3.550878633e-001  -4.182665732e+001   3.551097082e-001  -4.183014580e+001   3.450961200e-001  -1.367642749e+002
  1.440000000e+009  1.911780974e-001   1.732641011e+002   3.521213851e-001  -8.772934081e+001   3.521315779e-001  -8.773498676e+001   3.278480775e-001  -1.384974833e+002
  1.460000000e+009  1.633698844e-001   1.681998793e+002   3.496954255e-001  -1.342801581e+002   3.496888335e-001  -1.342864161e+002   3.005003632e-001  -1.337158069e+002
  1.480000000e+009  1.954512896e-001  -1.778189190e+002   3.405346842e-001   1.789327830e+002   3.405133137e-001   1.789273631e+002   3.276952368e-001  -1.258389767e+002
  1.500000000e+009  2.815578083e-001   1.724998857e+002   3.278167283e-001   1.335552215e+002   3.277875296e-001   1.335511374e+002   3.792760907e-001  -1.287521330e+002
  1.520000000e+009  3.132121184e-001   1.529401623e+002   3.229212771e-001   8.933817684e+001   3.228865372e-001   8.933546623e+001   3.771723915e-001  -1.371742943e+002
  1.540000000e+009  2.771023286e-001   1.384192652e+002   3.266281421e-001   4.413099413e+001   3.265866738e-001   4.412999978e+001   3.156710327e-001  -1.395671394e+002
  1.560000000e+009  2.484773890e-001   1.384443805e+002   3.263593809e-001  -2.744272610e+000   3.263181420e-001  -2.742531363e+000   2.892880387e-001  -1.266093159e+002
  1.580000000e+009  2.860795617e-001   1.346227337e+002   3.164525848e-001  -4.907972978e+001   3.164206792e-001  -4.907598186e+001   3.538069625e-001  -1.205831191e+002
  1.600000000e+009  3.028223116e-001   1.174639530e+002   3.086245162e-001  -9.363764704e+001   3.086027883e-001  -9.363287261e+001   3.973573325e-001  -1.272420646e+002
  1.620000000e+009  2.514798706e-001   9.835001327e+001   3.106373287e-001  -1.381121005e+002   3.106247808e-001  -1.381068618e+002   3.746462876e-001  -1.340953984e+002
  1.640000000e+009  1.681589495e-001   9.307953362e+001   3.159662866e-001   1.757738492e+002   3.159646261e-001   1.757792454e+002   3.266529445e-001  -1.320204803e+002
  1.660000000e+009  1.522523781e-001   1.044427174e+002   3.147475703e-001   1.287273891e+002   3.147584032e-001   1.287315123e+002   3.301167713e-001  -1.234970837e+002
  1.680000000e+009  1.572964821e-001   9.320596039e+001   3.087184412e-001   8.232603839e+001   3.087344878e-001   8.232817151e+001   3.680368899e-001  -1.216060305e+002
  1.700000000e+009  9.674011259e-002   7.157319722e+001   3.041759990e-001   3.650356630e+001   3.041921139e-001   3.650372709e+001   3.873257249e-001  -1.238363996e+002
  1.720000000e+009  2.824910905e-002   1.554201730e+002   3.011670607e-001  -9.426829319e+000   3.011798040e-001  -9.428361799e+000   3.896457408e-001  -1.254928184e+002
  1.740000000e+009  1.183946984e-001   1.654851844e+002   2.981470141e-001  -5.545757747e+001   2.981546471e-001  -5.546060558e+001   3.854135097e-001  -1.265102676e+002
  1.760000000e+009  1.515716598e-001   1.450914229e+002   2.957626931e-001  -1.016701782e+002   2.957627189e-001  -1.016743150e+002   3.702443085e-001  -1.259965487e+002
  1.780000000e+009  1.388624519e-001   1.437586473e+002   2.917387749e-001  -1.484313680e+002   2.917291584e-001  -1.484358589e+002   3.643541986e-001  -1.212666554e+002
  1.800000000e+009  1.844835159e-001   1.532194567e+002   2.823717610e-001   1.649844723e+002   2.823540915e-001   1.649805347e+002   3.999835385e-001  -1.174072883e+002
  1.820000000e+009  2.608899809e-001   1.402099219e+002   2.719371940e-001   1.198059790e+002   2.719133968e-001   1.198029662e+002   4.414201513e-001  -1.203070443e+002
  1.840000000e+009  2.877574294e-001   1.199139128e+002   2.681147705e-001   7.546238072e+001   2.680869672e-001   7.546068557e+001   4.388313115e-001  -1.257408604e+002
  1.860000000e+009  2.582461204e-001   1.050013748e+002   2.700857524e-001   3.005042861e+001   2.700557918e-001   3.005044360e+001   3.970243767e-001  -1.262874796e+002
  1.880000000e+009  2.377834315e-001   1.029268409e+002   2.682215056e-001  -1.681246318e+001   2.681929916e-001  -1.681083695e+001   3.877278414e-001  -1.187562470e+002
  1.900000000e+009  2.716892546e-001   9.677005701e+001   2.590256820e-001  -6.305600956e+001   2.590023322e-001  -6.305289476e+001   4.411358228e-001  -1.154019465e+002
  1.920000000e+009  2.878604048e-001   7.843666513e+001   2.514704768e-001  -1.075687496e+002   2.514540288e-001  -1.075646932e+002   4.818639251e-001  -1.195203910e+002
  1.940000000e+009  2.453154341e-001   5.752466264e+001   2.517068910e-001  -1.518591497e+002   2.516970565e-001  -1.518548892e+002   4.733207730e-001  -1.242114136e+002
  1.960000000e+009  1.691482628e-001   4.678925144e+001   2.555183382e-001   1.623272912e+002   2.555150010e-001   1.623309717e+002   4.410112229e-001  -1.239538940e+002
  1.980000000e+009  1.407453593e-001   5.320746090e+001   2.547206212e-001   1.153320897e+002   2.547225017e-001   1.153347994e+002   4.407010002e-001  -1.193142544e+002
  2.000000000e+009  1.462355654e-001   4.145777132e+001   2.487092985e-001   6.880525199e+001   2.487135801e-001   6.880669682e+001   4.755290488e-001  -1.174749383e+002
  2.020000000e+009  1.046476592e-001   1.052181907e+001   2.429421138e-001   2.320389678e+001   2.429464087e-001   2.320405976e+001   5.039561569e-001  -1.192340736e+002
  2.040000000e+009  2.451551396e-002  -6.026465044e+001   2.398519090e-001  -2.217021551e+001   2.398537713e-001  -2.217156388e+001   5.118485269e-001  -1.216177511e+002
  2.060000000e+009  6.965283991e-002   1.489219906e+002   2.384841980e-001  -6.788370267e+001   2.384818023e-001  -6.788562947e+001   5.055091322e-001  -1.229870883e+002
  2.080000000e+009  1.031823542e-001   1.159887634e+002   2.371434930e-001  -1.141883566e+002   2.371377375e-001  -1.141907950e+002   4.950919546e-001  -1.224814447e+002
  2.100000000e+009  9.478881999e-002   1.127839373e+002   2.331649864e-001  -1.610227808e+002   2.331544472e-001  -1.610255812e+002   4.989803939e-001  -1.201270205e+002
  2.120000000e+009  1.394128125e-001   1.246008193e+002   2.249379987e-001   1.525101706e+002   2.249222088e-001   1.525076814e+002   5.286812331e-001  -1.188028146e+002
  2.140000000e+009  2.162038770e-001   1.086553996e+002   2.161711410e-001   1.074130227e+002   2.161523573e-001   1.074116802e+002   5.601866123e-001  -1.207332709e+002
  2.160000000e+009  2.524521708e-001   8.486027217e+001   2.123066181e-001   6.315980274e+001   2.122873830e-001   6.315952956e+001   5.636740778e-001  -1.240479384e+002
  2.180000000e+009  2.347481725e-001   6.558237838e+001   2.132402105e-001   1.801340339e+001   2.132206459e-001   1.801406937e+001   5.399872624e-001  -1.251648899e+002
  2.200000000e+009  2.106961736e-001   5.983534183e+001   2.121318422e-001  -2.869413602e+001   2.121130895e-001  -2.869271532e+001   5.298185523e-001  -1.222788216e+002
  2.220000000e+009  2.402751339e-001   5.476582179e+001   2.046290713e-001  -7.518141172e+001   2.046129920e-001  -7.517921882e+001   5.624089675e-001  -1.200933198e+002
  2.240000000e+009  2.717436577e-001   3.652243682e+001   1.965323696e-001  -1.198243642e+002   1.965205789e-001  -1.198218242e+002   5.989738677e-001  -1.219887054e+002
  2.260000000e+009  2.550264766e-001   1.336140446e+001   1.942969426e-001  -1.635911999e+002   1.942878330e-001  -1.635886775e+002   6.043316212e-001  -1.252890136e+002
  2.280000000e+009  1.950596281e-001  -5.040165995e+000   1.969809884e-001   1.514784769e+002   1.969730830e-001   1.514804591e+002   5.837448094e-001  -1.266380758e+002
  2.300000000e+009  1.487373030e-001  -7.422677914e+000   1.979306744e-001   1.048432595e+002   1.979236953e-001   1.048450948e+002   5.729249569e-001  -1.248500629e+002
  2.320000000e+009  1.554392811e-001  -1.351345541e+001   1.934083711e-001   5.812554206e+001   1.934024513e-001   5.812691397e+001   5.941622951e-001  -1.231828658e+002
