! Created Sun Jun 24 21:02:49 2012
# hz S ma R 100
! 2 Port Network Data from SP1.SP block
! freq  magS11  angS11  magS21  angS21  magS12  angS12  magS22  angS22  
!     
  0.000000000e+007  0  0  1  0  1  0  0  0
  2.000000000e+007  6.849032549e-002  -5.284524463e+000   9.498540590e-001  -2.847635252e+001   9.496707183e-001  -2.847169567e+001   4.857646999e-002   1.128001549e+002
  4.000000000e+007  6.332503591e-002  -1.449190117e+001   9.335017109e-001  -5.575280424e+001   9.333660341e-001  -5.574423015e+001   4.739263880e-002   4.210515823e+001
  6.000000000e+007  6.127053852e-002  -1.140295368e+001   9.208062988e-001  -8.281740474e+001   9.207373651e-001  -8.280633457e+001   7.053957512e-002  -1.317320906e+001
  8.000000000e+007  7.624448049e-002  -1.184545383e+001   9.084893697e-001  -1.097533331e+002   9.084959751e-001  -1.097415663e+002   1.017511082e-001  -4.901397981e+001
  1.000000000e+008  9.586710697e-002  -2.581789999e+001   8.964910885e-001  -1.365230574e+002   8.965717182e-001  -1.365125326e+002   1.269319893e-001  -7.582843719e+001
  1.200000000e+008  1.049872209e-001  -4.783874589e+001   8.858737642e-001  -1.631376227e+002   8.860122941e-001  -1.631301202e+002   1.378526539e-001  -9.763019659e+001
  1.400000000e+008  9.534585795e-002  -7.420497204e+001   8.774464715e-001   1.703210393e+002   8.776186165e-001   1.703241626e+002   1.306407957e-001  -1.148772778e+002
  1.600000000e+008  6.444996906e-002  -1.049684521e+002   8.708379744e-001   1.437383106e+002   8.710130835e-001   1.437365004e+002   1.070950442e-001  -1.247934807e+002
  1.800000000e+008  1.773183295e-002  -1.652792644e+002   8.643858645e-001   1.170445731e+002   8.645299098e-001   1.170381936e+002   8.085426262e-002  -1.182967752e+002
  2.000000000e+008  5.025541150e-002   4.299892912e+001   8.560953335e-001   9.028176789e+001   8.561853789e-001   9.027208924e+001   8.526970181e-002  -9.506544347e+001
  2.200000000e+008  1.108798140e-001   6.529181865e+000   8.452560219e-001   6.359397227e+001   8.452821620e-001   6.358270885e+001   1.238999186e-001  -8.784818009e+001
  2.400000000e+008  1.588550271e-001  -2.411498895e+001   8.333313235e-001   3.712331215e+001   8.332915312e-001   3.711220466e+001   1.641971662e-001  -9.501360915e+001
  2.600000000e+008  1.827194899e-001  -5.335858652e+001   8.230917826e-001   1.088439538e+001   8.229922661e-001   1.087508662e+001   1.871047327e-001  -1.066094820e+002
  2.800000000e+008  1.751609317e-001  -8.209853439e+001   8.165765451e-001  -1.527789398e+001   8.164319301e-001  -1.528399179e+001   1.850027365e-001  -1.178195871e+002
  3.000000000e+008  1.332947716e-001  -1.108976976e+002   8.133107715e-001  -4.160499149e+001   8.131409699e-001  -4.160669920e+001   1.597518700e-001  -1.240025260e+002
  3.200000000e+008  5.984879569e-002  -1.407782128e+002   8.099420056e-001  -6.825123516e+001   8.097755981e-001  -6.824801094e+001   1.304296910e-001  -1.169746196e+002
  3.400000000e+008  3.506413914e-002   1.636308666e+001   8.021247718e-001  -9.512023834e+001   8.019916655e-001  -9.511259349e+001   1.403779076e-001  -9.808416416e+001
  3.600000000e+008  1.337317597e-001  -1.483788733e+001   7.881008990e-001  -1.218657328e+002   7.880255799e-001  -1.218551172e+002   1.958773597e-001  -9.226236624e+001
  3.800000000e+008  2.171219959e-001  -4.299404031e+001   7.709372080e-001  -1.481252622e+002   7.709261321e-001  -1.481136311e+002   2.561184583e-001  -9.948511409e+001
  4.000000000e+008  2.703446755e-001  -7.006492238e+001   7.566612691e-001  -1.738095389e+002   7.567118846e-001  -1.737989236e+002   2.942159896e-001  -1.117017785e+002
  4.200000000e+008  2.846168713e-001  -9.637325713e+001   7.502560168e-001   1.608000601e+002   7.503544488e-001   1.608080954e+002   2.983114033e-001  -1.250964620e+002
  4.400000000e+008  2.552783641e-001  -1.221465950e+002   7.526227770e-001   1.351855141e+002   7.527528002e-001   1.351897957e+002   2.645841633e-001  -1.371642133e+002
  4.600000000e+008  1.815939893e-001  -1.466231399e+002   7.592892248e-001   1.088713853e+002   7.594305828e-001   1.088713632e+002   1.988001616e-001  -1.428482605e+002
  4.800000000e+008  7.328723870e-002  -1.597485997e+002   7.615110199e-001   8.176892409e+001   7.616420646e-001   8.176449089e+001   1.385860067e-001  -1.268324349e+002
  5.000000000e+008  7.098222283e-002  -5.847544268e+001   7.517970621e-001   5.437765800e+001   7.518925640e-001   5.436934358e+001   1.712165049e-001  -9.743044540e+001
  5.200000000e+008  1.874263462e-001  -7.019132606e+001   7.309987196e-001   2.751053732e+001   7.310392128e-001   2.749977440e+001   2.619066866e-001  -9.531704684e+001
  5.400000000e+008  2.752264279e-001  -9.398767698e+001   7.080953944e-001   1.671905986e+000   7.080728672e-001   1.660581602e+000   3.379909376e-001  -1.053059924e+002
  5.600000000e+008  3.205988520e-001  -1.189364156e+002   6.928389419e-001  -2.327852274e+001   6.927618954e-001  -2.328805709e+001   3.770079941e-001  -1.181243940e+002
  5.800000000e+008  3.198385522e-001  -1.444237871e+002   6.902361458e-001  -4.797377830e+001   6.901202621e-001  -4.797971428e+001   3.742677353e-001  -1.308905030e+002
  6.000000000e+008  2.716134872e-001  -1.710660282e+002   6.990978343e-001  -7.319405569e+001   6.989664834e-001  -7.319584839e+001   3.311121964e-001  -1.416068315e+002
  6.200000000e+008  1.779775434e-001   1.600705867e+002   7.120393560e-001  -9.948488707e+001   7.119118919e-001  -9.948279451e+001   2.589675099e-001  -1.458486160e+002
  6.400000000e+008  5.233210805e-002   1.219906573e+002   7.179577916e-001  -1.267674409e+002   7.178469527e-001  -1.267620806e+002   2.006411835e-001  -1.343503331e+002
  6.600000000e+008  8.227437173e-002  -6.550661329e+001   7.098764075e-001  -1.542631469e+002   7.097975479e-001  -1.542551378e+002   2.215547252e-001  -1.150926218e+002
  6.800000000e+008  1.891891519e-001  -9.893675760e+001   6.916379721e-001   1.789298891e+002   6.916000335e-001   1.789397394e+002   2.910986034e-001  -1.116132437e+002
  7.000000000e+008  2.525584798e-001  -1.280261204e+002   6.736355675e-001   1.531226879e+002   6.736469656e-001   1.531332307e+002   3.470596780e-001  -1.178515005e+002
  7.200000000e+008  2.661044289e-001  -1.567705988e+002   6.638478959e-001   1.279269911e+002   6.639096460e-001   1.279363487e+002   3.688385041e-001  -1.264324801e+002
  7.400000000e+008  2.306563389e-001   1.723867536e+002   6.638049582e-001   1.026332447e+002   6.639073003e-001   1.026390826e+002   3.567428042e-001  -1.338167701e+002
  7.600000000e+008  1.541269631e-001   1.337807601e+002   6.687958099e-001   7.666416926e+001   6.689150728e-001   7.666526157e+001   3.236390238e-001  -1.370579442e+002
  7.800000000e+008  7.841859670e-002   5.765792955e+001   6.705877440e-001   4.996165249e+001   6.706950160e-001   4.995800811e+001   2.978024755e-001  -1.340739546e+002
  8.000000000e+008  1.306073584e-001  -3.788828943e+001   6.636787072e-001   2.307495986e+001   6.637512900e-001   2.306800491e+001   3.064094635e-001  -1.288517584e+002
  8.200000000e+008  2.201503529e-001  -8.134191132e+001   6.505491412e-001  -3.303343554e+000   6.505782159e-001  -3.311852513e+000   3.386210663e-001  -1.283848424e+002
  8.400000000e+008  2.748785101e-001  -1.126586681e+002   6.389563222e-001  -2.895661946e+001   6.389480369e-001  -2.896527878e+001   3.622657641e-001  -1.329000993e+002
  8.600000000e+008  2.796522245e-001  -1.399843101e+002   6.349547651e-001  -5.429031609e+001   6.349125870e-001  -5.429823948e+001   3.577649820e-001  -1.391661445e+002
  8.800000000e+008  2.299210508e-001  -1.650142417e+002   6.387137001e-001  -8.001255953e+001   6.386387859e-001  -8.001894606e+001   3.223910789e-001  -1.434578202e+002
  9.000000000e+008  1.288020497e-001   1.755388748e+002   6.437717415e-001  -1.066426429e+002   6.436689067e-001  -1.066464169e+002   2.748365193e-001  -1.404488987e+002
  9.200000000e+008  4.279462889e-002  -1.127664074e+002   6.401778338e-001  -1.340199858e+002   6.400593898e-001  -1.340198001e+002   2.651436684e-001  -1.280587166e+002
  9.400000000e+008  1.722223632e-001  -8.910450266e+001   6.232035572e-001  -1.612251977e+002   6.230963492e-001  -1.612204818e+002   3.195304610e-001  -1.200581166e+002
  9.600000000e+008  2.926449811e-001  -1.091607675e+002   5.992261756e-001   1.727006330e+002   5.991547409e-001   1.727090218e+002   3.911591306e-001  -1.229271192e+002
  9.800000000e+008  3.695019930e-001  -1.309768189e+002   5.796918234e-001   1.479609820e+002   5.796659326e-001   1.479708974e+002   4.380711934e-001  -1.313804460e+002
  1.000000000e+009  3.970697641e-001  -1.521185120e+002   5.725954588e-001   1.239573035e+002   5.726098793e-001   1.239665863e+002   4.453185371e-001  -1.416936235e+002
  1.020000000e+009  3.739962090e-001  -1.721626639e+002   5.797963841e-001   9.969078922e+001   5.798414526e-001   9.969797960e+001   4.084546132e-001  -1.518836528e+002
  1.040000000e+009  3.002376224e-001   1.705299947e+002   5.965314307e-001   7.419190291e+001   5.965964100e-001   7.419653689e+001   3.288419115e-001  -1.588709764e+002
  1.060000000e+009  1.926752977e-001   1.649248941e+002   6.109323406e-001   4.706037529e+001   6.110095293e-001   4.706225854e+001   2.335413274e-001  -1.531458496e+002
  1.080000000e+009  1.475574991e-001  -1.650347873e+002   6.096376238e-001   1.900264406e+001   6.097160012e-001   1.900149049e+001   2.180513391e-001  -1.267880742e+002
  1.100000000e+009  2.375642671e-001  -1.515795492e+002   5.907449107e-001  -8.488981117e+000   5.908091368e-001  -8.493286492e+000   3.069989993e-001  -1.154993985e+002
  1.120000000e+009  3.324237302e-001  -1.636810477e+002   5.660363095e-001  -3.439616549e+001   5.660737344e-001  -3.440303575e+001   3.974574599e-001  -1.206898899e+002
  1.140000000e+009  3.845315299e-001   1.783066352e+002   5.485773685e-001  -5.883126145e+001   5.485798433e-001  -5.883929722e+001   4.481295612e-001  -1.305339836e+002
  1.160000000e+009  3.883345683e-001   1.586809560e+002   5.448902158e-001  -8.266231495e+001   5.448605747e-001  -8.266982856e+001   4.539487800e-001  -1.411016993e+002
  1.180000000e+009  3.437726002e-001   1.383630507e+002   5.548469237e-001  -1.069612459e+002   5.547898301e-001  -1.069669760e+002   4.170298901e-001  -1.506378588e+002
  1.200000000e+009  2.526904769e-001   1.187902128e+002   5.723370714e-001  -1.325564006e+002   5.722614503e-001  -1.325596097e+002   3.453680675e-001  -1.563269402e+002
  1.220000000e+009  1.308015172e-001   1.087602613e+002   5.865718244e-001  -1.595776679e+002   5.864881668e-001  -1.595782258e+002   2.690198355e-001  -1.519985455e+002
  1.240000000e+009  7.370741077e-002   1.651533883e+002   5.884441930e-001   1.727384414e+002   5.883631763e-001   1.727406240e+002   2.487827054e-001  -1.360465437e+002
  1.260000000e+009  1.619999056e-001  -1.794475308e+002   5.785399590e-001   1.454882788e+002   5.784695875e-001   1.454928362e+002   2.946534457e-001  -1.263252766e+002
  1.280000000e+009  2.273063972e-001   1.627050906e+002   5.653977944e-001   1.192128418e+002   5.653484091e-001   1.192196854e+002   3.472331299e-001  -1.272809066e+002
  1.300000000e+009  2.418346083e-001   1.394500802e+002   5.568593142e-001   9.365837295e+001   5.568396961e-001   9.366633528e+001   3.740073324e-001  -1.322429030e+002
  1.320000000e+009  2.059623806e-001   1.128495472e+002   5.552089347e-001   6.816562348e+001   5.552244351e-001   6.817326837e+001   3.720957127e-001  -1.369847948e+002
  1.340000000e+009  1.286061535e-001   7.900958321e+001   5.572668880e-001   4.219814574e+001   5.573115700e-001   4.220384678e+001   3.536565971e-001  -1.390333496e+002
  1.360000000e+009  4.949726635e-002  -3.150948878e+000   5.575123797e-001   1.571641739e+001   5.575701846e-001   1.571885836e+001   3.395878583e-001  -1.377670284e+002
  1.380000000e+009  1.127571982e-001  -1.050617443e+002   5.529658627e-001  -1.084564388e+001   5.530193943e-001  -1.084610017e+001   3.434091118e-001  -1.358694777e+002
  1.400000000e+009  1.958011254e-001  -1.412447915e+002   5.458253760e-001  -3.703324855e+001   5.458610970e-001  -3.703593831e+001   3.554589184e-001  -1.365250041e+002
  1.420000000e+009  2.409271246e-001  -1.678817157e+002   5.408044731e-001  -6.281425267e+001   5.408236322e-001  -6.281784782e+001   3.556932140e-001  -1.396344674e+002
  1.440000000e+009  2.378410035e-001   1.698376492e+002   5.406652950e-001  -8.860110095e+001   5.406708583e-001  -8.860540822e+001   3.324552304e-001  -1.427101479e+002
  1.460000000e+009  1.878893211e-001   1.539100320e+002   5.436641031e-001  -1.149337935e+002   5.436561254e-001  -1.149386056e+002   2.906412894e-001  -1.416234382e+002
  1.480000000e+009  1.182100005e-001   1.597193320e+002   5.437233908e-001  -1.420185411e+002   5.436939146e-001  -1.420234748e+002   2.619088688e-001  -1.318949994e+002
  1.500000000e+009  1.360295274e-001  -1.635879895e+002   5.347567390e-001  -1.693847843e+002   5.347047190e-001  -1.693885256e+002   2.886472679e-001  -1.196307435e+002
  1.520000000e+009  2.358254074e-001  -1.626579139e+002   5.171849237e-001   1.638703896e+002   5.171216329e-001   1.638692895e+002   3.554294383e-001  -1.167351298e+002
  1.540000000e+009  3.247370341e-001  -1.773779253e+002   4.982762775e-001   1.383309091e+002   4.982165355e-001   1.383326153e+002   4.152930966e-001  -1.216333590e+002
  1.560000000e+009  3.768944534e-001   1.649447585e+002   4.859605777e-001   1.138375483e+002   4.859167694e-001   1.138415794e+002   4.433017512e-001  -1.297228285e+002
  1.580000000e+009  3.868164064e-001   1.472712609e+002   4.843800846e-001   8.965501350e+001   4.843554657e-001   8.965979005e+001   4.317199344e-001  -1.384408852e+002
  1.600000000e+009  3.542765855e-001   1.311669073e+002   4.928429064e-001   6.484518944e+001   4.928335070e-001   6.484975555e+001   3.796454102e-001  -1.456311663e+002
  1.620000000e+009  2.868477869e-001   1.201423604e+002   5.053786943e-001   3.869311597e+001   5.053804697e-001   3.869686174e+001   2.978196964e-001  -1.465793156e+002
  1.640000000e+009  2.212599741e-001   1.226266915e+002   5.119350179e-001   1.121264483e+001   5.119429158e-001   1.121563932e+001   2.361134442e-001  -1.318579326e+002
  1.660000000e+009  2.289257078e-001   1.358003918e+002   5.050916135e-001  -1.663520671e+001   5.051059783e-001  -1.663314401e+001   2.709585818e-001  -1.113838036e+002
  1.680000000e+009  2.970381476e-001   1.350169692e+002   4.875212020e-001  -4.359440250e+001   4.875390582e-001  -4.359330114e+001   3.612870190e-001  -1.074449725e+002
  1.700000000e+009  3.571879828e-001   1.225491755e+002   4.689878828e-001  -6.909466657e+001   4.690072095e-001  -6.909502067e+001   4.358391637e-001  -1.128315037e+002
  1.720000000e+009  3.825526310e-001   1.056748082e+002   4.577542884e-001  -9.348329782e+001   4.577678079e-001  -9.348538025e+001   4.729076754e-001  -1.207100567e+002
  1.740000000e+009  3.680006173e-001   8.706587650e+001   4.570380221e-001  -1.176047551e+002   4.570401290e-001  -1.176081884e+002   4.714517983e-001  -1.284594842e+002
  1.760000000e+009  3.136707109e-001   6.801068940e+001   4.654904653e-001  -1.423459706e+002   4.654767255e-001  -1.423497887e+002   4.362241120e-001  -1.344142111e+002
  1.780000000e+009  2.252152924e-001   5.125844706e+001   4.779722177e-001  -1.682876590e+002   4.779431485e-001  -1.682907247e+002   3.795980296e-001  -1.361144263e+002
  1.800000000e+009  1.266854699e-001   4.864717082e+001   4.870325480e-001   1.645788161e+002   4.869953830e-001   1.645771443e+002   3.311909601e-001  -1.305054762e+002
  1.820000000e+009  1.007262021e-001   8.437396833e+001   4.869827629e-001   1.369070752e+002   4.869423789e-001   1.369065388e+002   3.290031599e-001  -1.200230989e+002
  1.840000000e+009  1.602863466e-001   9.035231332e+001   4.783068626e-001   1.095677337e+002   4.782672602e-001   1.095682507e+002   3.708940657e-001  -1.136256582e+002
  1.860000000e+009  2.040479955e-001   7.171196512e+001   4.664018120e-001   8.301528729e+001   4.663651102e-001   8.301691029e+001   4.207787891e-001  -1.131675684e+002
  1.880000000e+009  2.096447469e-001   4.509836431e+001   4.562354618e-001   5.712642990e+001   4.562041810e-001   5.712896954e+001   4.570015864e-001  -1.155417814e+002
  1.900000000e+009  1.818763373e-001   1.178683841e+001   4.495821570e-001   3.151588804e+001   4.495594266e-001   3.151920537e+001   4.764484025e-001  -1.184827024e+002
  1.920000000e+009  1.392774197e-001  -3.304030888e+001   4.457584045e-001   5.875670988e+000   4.457460977e-001   5.879087036e+000   4.836625163e-001  -1.210123095e+002
  1.940000000e+009  1.185811635e-001  -9.472019339e+001   4.434486393e-001  -1.990580713e+001   4.434430459e-001  -1.990302551e+001   4.839382809e-001  -1.229168588e+002
  1.960000000e+009  1.413206799e-001  -1.535595998e+002   4.419266520e-001  -4.581788874e+001   4.419241987e-001  -4.581595835e+001   4.799722388e-001  -1.243142041e+002
  1.980000000e+009  1.717626779e-001   1.638453860e+002   4.412541316e-001  -7.186451841e+001   4.412527781e-001  -7.186318192e+001   4.713523226e-001  -1.252207013e+002
  2.000000000e+009  1.767637823e-001   1.305714132e+002   4.415237096e-001  -9.816746204e+001   4.415215949e-001  -9.816652937e+001   4.575051839e-001  -1.251764409e+002
  2.020000000e+009  1.428339680e-001   1.034457813e+002   4.414945690e-001  -1.249242458e+002   4.414924667e-001  -1.249234984e+002   4.433281325e-001  -1.233270476e+002
  2.040000000e+009  7.346367627e-002   9.181793669e+001   4.381120060e-001  -1.521709146e+002   4.381102030e-001  -1.521709474e+002   4.420994386e-001  -1.194967538e+002
  2.060000000e+009  6.235600274e-002   1.645715850e+002   4.283899655e-001  -1.795463762e+002   4.283847310e-001  -1.795467932e+002   4.661849637e-001  -1.156083104e+002
  2.080000000e+009  1.638519597e-001   1.646080995e+002   4.126310336e-001   1.536141481e+002   4.126224736e-001   1.536134571e+002   5.106287472e-001  -1.142590089e+002
  2.100000000e+009  2.591938924e-001   1.439281951e+002   3.950522208e-001   1.278344182e+002   3.950403808e-001   1.278337740e+002   5.567353991e-001  -1.159264602e+002
  2.120000000e+009  3.268852557e-001   1.213744759e+002   3.809406552e-001   1.031490751e+002   3.809272348e-001   1.031486302e+002   5.887159884e-001  -1.195021924e+002
  2.140000000e+009  3.600440916e-001   9.917701451e+001   3.739627903e-001   7.910177792e+001   3.739493746e-001   7.910158469e+001   5.990051922e-001  -1.237689156e+002
  2.160000000e+009  3.557141944e-001   7.787146412e+001   3.752559867e-001   5.493607803e+001   3.752426435e-001   5.493579148e+001   5.854934229e-001  -1.276835296e+002
  2.180000000e+009  3.123784682e-001   5.850445401e+001   3.830597567e-001   2.983428772e+001   3.830436777e-001   2.983390073e+001   5.508415193e-001  -1.299782775e+002
  2.200000000e+009  2.364207813e-001   4.535882770e+001   3.920931142e-001   3.245921348e+000   3.920739011e-001   3.245481490e+000   5.084140229e-001  -1.288723776e+002
  2.220000000e+009  1.690180906e-001   5.149444600e+001   3.944205631e-001  -2.466198151e+001   3.943987551e-001  -2.466216900e+001   4.885254451e-001  -1.236579162e+002
  2.240000000e+009  1.957939102e-001   6.946453202e+001   3.847835394e-001  -5.281407722e+001   3.847621717e-001  -5.281386527e+001   5.155174297e-001  -1.180715974e+002
  2.260000000e+009  2.804347559e-001   6.456597646e+001   3.660915488e-001  -7.988191705e+001   3.660712897e-001  -7.988120447e+001   5.720474885e-001  -1.164358726e+002
  2.280000000e+009  3.502104871e-001   4.802237411e+001   3.464165422e-001  -1.052433972e+002   3.463978246e-001  -1.052427409e+002   6.250832479e-001  -1.184078848e+002
  2.300000000e+009  3.862718268e-001   2.821712488e+001   3.323249102e-001  -1.291691511e+002   3.323062409e-001  -1.291682578e+002   6.582360553e-001  -1.220505699e+002
  2.320000000e+009  3.875619034e-001   7.428469063e+000   3.267832229e-001  -1.524262015e+002   3.267639842e-001  -1.524249767e+002   6.683472554e-001  -1.260641028e+002
