! Created Sun Jun 24 21:03:52 2012
# hz S ma R 100
! 2 Port Network Data from SP1.SP block
! freq  magS11  angS11  magS21  angS21  magS12  angS12  magS22  angS22  
!     
  0.000000000e+007  0  0  1  0  1  0  0  0
  2.000000000e+007  7.378457994e-002  -4.663134323e+000   9.429408463e-001  -3.391977058e+001   9.427586120e-001  -3.391512113e+001   4.946469757e-002   9.230495198e+001
  4.000000000e+007  6.933696977e-002  -1.365169480e+001   9.232080347e-001  -6.638455786e+001   9.230733878e-001  -6.637597526e+001   6.166497985e-002   1.571888739e+001
  6.000000000e+007  7.229617143e-002  -1.325033905e+001   9.077160460e-001  -9.857227809e+001   9.076477289e-001  -9.856116705e+001   9.205554115e-002  -3.515478559e+001
  8.000000000e+007  8.801529688e-002  -2.256424845e+001   8.931867801e-001  -1.305611840e+002   8.931935833e-001  -1.305493517e+002   1.182767864e-001  -7.094118154e+001
  1.000000000e+008  9.488725765e-002  -4.373290711e+001   8.803688709e-001  -1.623533338e+002   8.804494413e-001  -1.623427739e+002   1.259298891e-001  -9.893636030e+001
  1.200000000e+008  7.803014752e-002  -7.030346790e+001   8.701363008e-001   1.659377506e+002   8.702739547e-001   1.659451703e+002   1.093825137e-001  -1.197192485e+002
  1.400000000e+008  3.453779416e-002  -9.595048793e+001   8.614491910e-001   1.341669337e+002   8.616175792e-001   1.341698847e+002   7.543892810e-002  -1.252213182e+002
  1.600000000e+008  2.929155020e-002   3.428639554e+001   8.517467070e-001   1.023081284e+002   8.519146337e-001   1.023062731e+002   6.338482679e-002  -9.602738052e+001
  1.800000000e+008  9.538654158e-002   8.611594983e+000   8.394829368e-001   7.051085350e+001   8.396201741e-001   7.050469694e+001   1.039296697e-001  -8.251025505e+001
  2.000000000e+008  1.455606202e-001  -2.277503575e+001   8.261969535e-001   3.895745956e+001   8.262855928e-001   3.894810464e+001   1.469526476e-001  -9.280841110e+001
  2.200000000e+008  1.631882223e-001  -5.453789553e+001   8.153394652e-001   7.643263775e+000   8.153702236e-001   7.632068656e+000   1.644257878e-001  -1.079025313e+002
  2.400000000e+008  1.390176459e-001  -8.583216420e+001   8.086794730e-001  -2.367509799e+001   8.086445890e-001  -2.368654389e+001   1.491126961e-001  -1.199089721e+002
  2.600000000e+008  7.328840563e-002  -1.138394241e+002   8.037680003e-001  -5.527259573e+001   8.036679994e-001  -5.528230443e+001   1.151058391e-001  -1.178812918e+002
  2.800000000e+008  2.707559942e-002  -3.847313335e+000   7.953300579e-001  -8.713926334e+001   7.951828200e-001  -8.714534289e+001   1.174548825e-001  -9.505136616e+001
  3.000000000e+008  1.270755794e-001  -1.496277775e+001   7.807018383e-001  -1.188858575e+002   7.805362088e-001  -1.188871340e+002   1.766910928e-001  -8.884013876e+001
  3.200000000e+008  2.077097691e-001  -4.478365421e+001   7.638381224e-001  -1.500905635e+002   7.636848776e-001  -1.500869547e+002   2.357574689e-001  -9.971678878e+001
  3.400000000e+008  2.462767958e-001  -7.519371249e+001   7.522089497e-001   1.792341566e+002   7.520900519e-001   1.792417784e+002   2.602003437e-001  -1.155099638e+002
  3.600000000e+008  2.316252781e-001  -1.051346557e+002   7.499332120e-001   1.485657835e+002   7.498641748e-001   1.485760505e+002   2.377203095e-001  -1.308164579e+002
  3.800000000e+008  1.615287518e-001  -1.330889021e+002   7.534155990e-001   1.172588689e+002   7.534024986e-001   1.172702136e+002   1.731064441e-001  -1.384371859e+002
  4.000000000e+008  5.299996044e-002  -1.381110583e+002   7.523581341e-001   8.515317279e+001   7.524048852e-001   8.516384342e+001   1.196075439e-001  -1.160304525e+002
  4.200000000e+008  9.906619618e-002  -5.087371893e+001   7.386989805e-001   5.290840313e+001   7.387958852e-001   5.291671829e+001   1.790625757e-001  -9.009786430e+001
  4.400000000e+008  2.081503412e-001  -7.234325115e+001   7.164926465e-001   2.146854916e+001   7.166206710e-001   2.147293133e+001   2.713963813e-001  -9.624657329e+001
  4.600000000e+008  2.717688141e-001  -1.010553525e+002   6.981993286e-001  -8.891835324e+000   6.983329679e-001  -8.892213909e+000   3.269004370e-001  -1.109342484e+002
  4.800000000e+008  2.771374682e-001  -1.310749225e+002   6.928451382e-001  -3.880474386e+001   6.929615239e-001  -3.880970667e+001   3.292637552e-001  -1.263266984e+002
  5.000000000e+008  2.214700380e-001  -1.625688599e+002   6.997516574e-001  -6.928288188e+001   6.998323117e-001  -6.929123483e+001   2.798790911e-001  -1.383589593e+002
  5.200000000e+008  1.115491166e-001   1.631729114e+002   7.083969321e-001  -1.009443910e+002   7.084312234e-001  -1.009545078e+002   2.038862918e-001  -1.380878675e+002
  5.400000000e+008  2.717480937e-002  -3.449336846e+001   7.055628604e-001  -1.333783890e+002   7.055454873e-001  -1.333889658e+002   1.834605222e-001  -1.163335105e+002
  5.600000000e+008  1.495145890e-001  -7.878328447e+001   6.891437651e-001  -1.654249066e+002   6.890786794e-001  -1.654344407e+002   2.499136404e-001  -1.064298570e+002
  5.800000000e+008  2.229233725e-001  -1.126931179e+002   6.704119155e-001   1.636099196e+002   6.703051999e-001   1.636030433e+002   3.139610083e-001  -1.130153854e+002
  6.000000000e+008  2.331532673e-001  -1.465003582e+002   6.605517440e-001   1.333394665e+002   6.604203853e-001   1.333367262e+002   3.352451400e-001  -1.233068017e+002
  6.200000000e+008  1.806491865e-001   1.760279365e+002   6.610993282e-001   1.028200175e+002   6.609675655e-001   1.028221535e+002   3.143642505e-001  -1.311158067e+002
  6.400000000e+008  8.546097856e-002   1.181348361e+002   6.639428680e-001   7.143448036e+001   6.638330695e-001   7.144079637e+001   2.781999022e-001  -1.314442894e+002
  6.600000000e+008  9.237002741e-002  -1.209061341e+001   6.589028260e-001   3.950868363e+001   6.588334410e-001   3.951771333e+001   2.741187120e-001  -1.249655708e+002
  6.800000000e+008  1.941334327e-001  -6.696623269e+001   6.453320495e-001   7.980364251e+000   6.453063859e-001   7.990551487e+000   3.085441354e-001  -1.230048901e+002
  7.000000000e+008  2.527586292e-001  -1.030859161e+002   6.326893454e-001  -2.271371917e+001   6.327065080e-001  -2.270354891e+001   3.359727330e-001  -1.282271684e+002
  7.200000000e+008  2.447285746e-001  -1.345363238e+002   6.289694982e-001  -5.312029329e+001   6.290273129e-001  -5.311133569e+001   3.265411066e-001  -1.352734792e+002
  7.400000000e+008  1.659226582e-001  -1.622528366e+002   6.323473782e-001  -8.419372122e+001   6.324421230e-001  -8.418777345e+001   2.834405309e-001  -1.374468267e+002
  7.600000000e+008  4.112452123e-002  -1.492562465e+002   6.314327726e-001  -1.162927893e+002   6.315468558e-001  -1.162913129e+002   2.547620133e-001  -1.278444054e+002
  7.800000000e+008  1.433935145e-001  -7.214128214e+001   6.163689401e-001  -1.485358694e+002   6.164726504e-001  -1.485393786e+002   2.989735977e-001  -1.176297616e+002
  8.000000000e+008  2.745310357e-001  -9.539667650e+001   5.924892131e-001  -1.795903882e+002   5.925577766e-001  -1.795975462e+002   3.733141115e-001  -1.205254743e+002
  8.200000000e+008  3.487923161e-001  -1.213427167e+002   5.747447781e-001   1.508410681e+002   5.747715368e-001   1.508324060e+002   4.161193803e-001  -1.306174242e+002
  8.400000000e+008  3.557528725e-001  -1.463092354e+002   5.729085541e-001   1.217794607e+002   5.729033618e-001   1.217708375e+002   4.050611351e-001  -1.423756777e+002
  8.600000000e+008  2.930236493e-001  -1.687559134e+002   5.856046661e-001   9.174841480e+001   5.855703445e-001   9.174032273e+001   3.373190355e-001  -1.515049221e+002
  8.800000000e+008  1.762075781e-001  -1.786258036e+002   5.991479801e-001   5.983981913e+001   5.990803842e-001   5.983294212e+001   2.427166005e-001  -1.473255103e+002
  9.000000000e+008  1.347607043e-001  -1.398734083e+002   5.953395874e-001   2.681273123e+001   5.952431600e-001   2.680855208e+001   2.366213483e-001  -1.225653224e+002
  9.200000000e+008  2.482023342e-001  -1.329751054e+002   5.726919437e-001  -5.318607502e+000   5.725845096e-001  -5.318406420e+000   3.344774466e-001  -1.158369993e+002
  9.400000000e+008  3.384386204e-001  -1.516590933e+002   5.486411092e-001  -3.545967050e+001   5.485502834e-001  -3.545480377e+001   4.157387150e-001  -1.242957057e+002
  9.600000000e+008  3.646645157e-001  -1.746394019e+002   5.385575018e-001  -6.428900548e+001   5.385005431e-001  -6.428110347e+001   4.411083050e-001  -1.361381084e+002
  9.800000000e+008  3.234185199e-001   1.612909688e+002   5.459791452e-001  -9.336375063e+001   5.459570748e-001  -9.335514471e+001   4.085750124e-001  -1.471342815e+002
  1.000000000e+009  2.179421703e-001   1.387186814e+002   5.628881638e-001  -1.240174495e+002   5.628936280e-001  -1.240094613e+002   3.313635757e-001  -1.525964793e+002
  1.020000000e+009  8.208364941e-002   1.413057697e+002   5.733620196e-001  -1.563478853e+002   5.733906674e-001  -1.563410255e+002   2.638327661e-001  -1.439935705e+002
  1.040000000e+009  1.188232612e-001  -1.505246028e+002   5.674071199e-001   1.710162020e+002   5.674560483e-001   1.710216752e+002   2.824175466e-001  -1.290982371e+002
  1.060000000e+009  2.145730189e-001  -1.653349352e+002   5.522278101e-001   1.394737957e+002   5.522955009e-001   1.394770389e+002   3.441867426e-001  -1.273975068e+002
  1.080000000e+009  2.452217776e-001   1.687730663e+002   5.412107966e-001   1.090649038e+002   5.412879895e-001   1.090645320e+002   3.798143497e-001  -1.331913104e+002
  1.100000000e+009  2.046947987e-001   1.393506853e+002   5.396993620e-001   7.880012591e+001   5.397654959e-001   7.879551074e+001   3.753054971e-001  -1.392321267e+002
  1.120000000e+009  1.039889678e-001   1.025442838e+002   5.427221642e-001   4.779841452e+001   5.427570110e-001   4.779083478e+001   3.488590638e-001  -1.412383827e+002
  1.140000000e+009  4.431214528e-002  -5.524435707e+001   5.414039900e-001   1.613541710e+001   5.413987952e-001   1.612730737e+001   3.362617597e-001  -1.386455928e+002
  1.160000000e+009  1.623510183e-001  -1.124326883e+002   5.332851832e-001  -1.533742231e+001   5.332514138e-001  -1.534408585e+001   3.510366687e-001  -1.371927361e+002
  1.180000000e+009  2.379059493e-001  -1.432483965e+002   5.248206204e-001  -4.609481703e+001   5.247710735e-001  -4.609957701e+001   3.643147545e-001  -1.402539718e+002
  1.200000000e+009  2.476274084e-001  -1.689541442e+002   5.227367184e-001  -7.656596351e+001   5.226764265e-001  -7.656906476e+001   3.482185584e-001  -1.449635676e+002
  1.220000000e+009  1.912004605e-001   1.727488431e+002   5.261606970e-001  -1.076753548e+002   5.260884502e-001  -1.076764267e+002   3.028869444e-001  -1.455361339e+002
  1.240000000e+009  1.136664450e-001  -1.746646266e+002   5.258076274e-001  -1.398051690e+002   5.257317614e-001  -1.398029236e+002   2.726067440e-001  -1.357335052e+002
  1.260000000e+009  1.698813050e-001  -1.403069558e+002   5.133320840e-001  -1.720807184e+002   5.132711982e-001  -1.720751694e+002   3.123248260e-001  -1.251618735e+002
  1.280000000e+009  2.838494524e-001  -1.494419442e+002   4.930261982e-001   1.568470703e+002   4.929962846e-001   1.568546410e+002   3.829362640e-001  -1.265933119e+002
  1.300000000e+009  3.578553345e-001  -1.684959638e+002   4.773560368e-001   1.273198245e+002   4.773557524e-001   1.273269421e+002   4.243637108e-001  -1.351597930e+002
  1.320000000e+009  3.740415160e-001   1.716964925e+002   4.747426044e-001   9.840899982e+001   4.747623330e-001   9.841452399e+001   4.142386863e-001  -1.455908746e+002
  1.340000000e+009  3.320063502e-001   1.543906094e+002   4.846329127e-001   6.867017491e+001   4.846642448e-001   6.867408315e+001   3.498861645e-001  -1.538895189e+002
  1.360000000e+009  2.515792933e-001   1.466286116e+002   4.968996524e-001   3.716074734e+001   4.969386782e-001   3.716284885e+001   2.563046223e-001  -1.510686498e+002
  1.380000000e+009  2.134715632e-001   1.587204965e+002   4.972852726e-001   4.421791910e+000   4.973284392e-001   4.422077262e+000   2.321960178e-001  -1.278943274e+002
  1.400000000e+009  2.733648341e-001   1.647579701e+002   4.825411773e-001  -2.776702596e+001   4.825784504e-001  -2.776922680e+001   3.157500082e-001  -1.170466174e+002
  1.420000000e+009  3.407833179e-001   1.530476455e+002   4.645367693e-001  -5.823637056e+001   4.645613785e-001  -5.824069299e+001   3.966362174e-001  -1.227083002e+002
  1.440000000e+009  3.623017765e-001   1.348518138e+002   4.556705461e-001  -8.741333853e+001   4.556754551e-001  -8.741923594e+001   4.275139182e-001  -1.327009597e+002
  1.460000000e+009  3.280776812e-001   1.150110968e+002   4.596966841e-001  -1.166145411e+002   4.596803290e-001  -1.166204611e+002   4.050329125e-001  -1.421780067e+002
  1.480000000e+009  2.431003370e-001   9.740523776e+001   4.718632893e-001  -1.470233774e+002   4.718269581e-001  -1.470281718e+002   3.417804240e-001  -1.471640580e+002
  1.500000000e+009  1.399260054e-001   9.561147830e+001   4.818663552e-001  -1.789052026e+002   4.818169199e-001  -1.789082783e+002   2.779610549e-001  -1.414499343e+002
  1.520000000e+009  1.215587829e-001   1.277184657e+002   4.816257824e-001   1.486253328e+002   4.815704557e-001   1.486241789e+002   2.752928421e-001  -1.276500837e+002
  1.540000000e+009  1.780975174e-001   1.282975403e+002   4.732805332e-001   1.167182648e+002   4.732233313e-001   1.167190054e+002   3.222816067e-001  -1.218811471e+002
  1.560000000e+009  1.987539888e-001   1.079664084e+002   4.648037571e-001   8.564492935e+001   4.647524232e-001   8.564809401e+001   3.614991448e-001  -1.238020105e+002
  1.580000000e+009  1.621715805e-001   8.012100409e+001   4.604168970e-001   5.487000878e+001   4.603801879e-001   5.487498049e+001   3.745202305e-001  -1.272208045e+002
  1.600000000e+009  8.007903694e-002   4.011105994e+001   4.585779559e-001   2.386255101e+001   4.585604288e-001   2.386828548e+001   3.715535225e-001  -1.290458222e+002
  1.620000000e+009  4.839603660e-002  -1.007602854e+002   4.558985150e-001  -7.401474955e+000   4.558987385e-001  -7.396410475e+000   3.693168778e-001  -1.292496202e+002
  1.640000000e+009  1.358839843e-001  -1.574190221e+002   4.516459536e-001  -3.859481606e+001   4.516556983e-001  -3.859088652e+001   3.714809960e-001  -1.297705343e+002
  1.660000000e+009  1.896229532e-001   1.721481452e+002   4.483456630e-001  -6.958939325e+001   4.483622084e-001  -6.958673280e+001   3.657453149e-001  -1.312758899e+002
  1.680000000e+009  1.882908276e-001   1.488467328e+002   4.477784373e-001  -1.007534031e+002   4.477991584e-001  -1.007519243e+002   3.431139108e-001  -1.314939452e+002
  1.700000000e+009  1.399208910e-001   1.393477419e+002   4.470869123e-001  -1.325508586e+002   4.471096472e-001  -1.325510787e+002   3.185409520e-001  -1.266312088e+002
  1.720000000e+009  1.200437941e-001   1.642605366e+002   4.403795803e-001  -1.648170416e+002   4.403955928e-001  -1.648191239e+002   3.302186437e-001  -1.178243064e+002
  1.740000000e+009  2.013139418e-001   1.742319906e+002   4.258742851e-001   1.633656678e+002   4.258783069e-001   1.633623554e+002   3.847339136e-001  -1.139740731e+002
  1.760000000e+009  2.921013824e-001   1.600174727e+002   4.094451172e-001   1.328047257e+002   4.094365906e-001   1.328012008e+002   4.408627387e-001  -1.172510551e+002
  1.780000000e+009  3.444409992e-001   1.405410093e+002   3.991477440e-001   1.033744157e+002   3.991298936e-001   1.033714809e+002   4.654676333e-001  -1.239137432e+002
  1.800000000e+009  3.467076852e-001   1.210854743e+002   3.989347475e-001   7.409215341e+001   3.989123353e-001   7.409007565e+001   4.474291694e-001  -1.306100728e+002
  1.820000000e+009  3.009257068e-001   1.051692989e+002   4.063905809e-001   4.376692619e+001   4.063636439e-001   4.376534466e+001   3.920921131e-001  -1.336476255e+002
  1.840000000e+009  2.350053824e-001   1.004326841e+002   4.128142584e-001   1.183442392e+001   4.127827022e-001   1.183348434e+001   3.359113396e-001  -1.274234053e+002
  1.860000000e+009  2.247351859e-001   1.099752170e+002   4.085230404e-001  -2.093689944e+001   4.084884347e-001  -2.093666153e+001   3.472845769e-001  -1.145252609e+002
  1.880000000e+009  2.852279704e-001   1.089384062e+002   3.934079325e-001  -5.291906520e+001   3.933758406e-001  -5.291746278e+001   4.204189195e-001  -1.099368896e+002
  1.900000000e+009  3.400709953e-001   9.438698428e+001   3.770741803e-001  -8.322121560e+001   3.770502243e-001  -8.321844079e+001   4.872668635e-001  -1.136141527e+002
  1.920000000e+009  3.528687257e-001   7.475079731e+001   3.682327899e-001  -1.123003027e+002   3.682181145e-001  -1.122973104e+002   5.167789558e-001  -1.199544419e+002
  1.940000000e+009  3.181124232e-001   5.369109001e+001   3.696372566e-001  -1.413358195e+002   3.696271977e-001  -1.413333232e+002   5.064293841e-001  -1.258238361e+002
  1.960000000e+009  2.410418240e-001   3.426736053e+001   3.783264846e-001  -1.714783823e+002   3.783184816e-001  -1.714763757e+002   4.663470800e-001  -1.287786166e+002
  1.980000000e+009  1.458182556e-001   2.684883718e+001   3.867674223e-001   1.568172168e+002   3.867620695e-001   1.568190257e+002   4.241480120e-001  -1.263252075e+002
  2.000000000e+009  1.127561042e-001   5.132222151e+001   3.873591028e-001   1.241849846e+002   3.873566835e-001   1.241864395e+002   4.189651109e-001  -1.197418132e+002
  2.020000000e+009  1.618382254e-001   5.366475060e+001   3.791215198e-001   9.182473897e+001   3.791213879e-001   9.182557453e+001   4.555626774e-001  -1.153931965e+002
  2.040000000e+009  1.925396107e-001   3.084034101e+001   3.674654012e-001   6.045477424e+001   3.674638400e-001   6.045438889e+001   5.012782372e-001  -1.154922979e+002
  2.060000000e+009  1.811572402e-001  -1.892665901e+000   3.579337012e-001   2.996144687e+001   3.579266720e-001   2.996080312e+001   5.330833202e-001  -1.179421532e+002
  2.080000000e+009  1.414218413e-001  -4.521131544e+001   3.526481574e-001  -2.011175710e-001   3.526383551e-001  -2.016713145e-001   5.469990482e-001  -1.208248727e+002
  2.100000000e+009  1.078875783e-001  -1.068303142e+002   3.508717212e-001  -3.051110638e+001   3.508605533e-001  -3.051154810e+001   5.473458510e-001  -1.232201811e+002
  2.120000000e+009  1.149314954e-001  -1.745258169e+002   3.510560791e-001  -6.119133107e+001   3.510438974e-001  -6.119181168e+001   5.390415508e-001  -1.247788929e+002
  2.140000000e+009  1.326386517e-001   1.355738674e+002   3.519019288e-001  -9.234295433e+001   3.518880904e-001  -9.234339506e+001   5.258409073e-001  -1.252149334e+002
  2.160000000e+009  1.193488927e-001   9.942105980e+001   3.517810534e-001  -1.240500246e+002   3.517652713e-001  -1.240503499e+002   5.137615921e-001  -1.241207807e+002
  2.180000000e+009  6.683864681e-002   8.347798445e+001   3.481727128e-001  -1.562319666e+002   3.481553890e-001  -1.562318959e+002   5.141198861e-001  -1.215982301e+002
  2.200000000e+009  6.387436730e-002   1.449893900e+002   3.390247567e-001   1.715764572e+002   3.390086692e-001   1.715766071e+002   5.363474229e-001  -1.191794849e+002
  2.220000000e+009  1.590899310e-001   1.405092193e+002   3.253568007e-001   1.401182955e+002   3.253413505e-001   1.401183115e+002   5.744185913e-001  -1.188043309e+002
  2.240000000e+009  2.461749994e-001   1.165692801e+002   3.116001348e-001   1.098892110e+002   3.115844549e-001   1.098892025e+002   6.100686238e-001  -1.207935675e+002
  2.260000000e+009  3.003046825e-001   9.117842710e+001   3.026624913e-001   8.070022633e+001   3.026452277e-001   8.070072481e+001   6.282836057e-001  -1.241292518e+002
  2.280000000e+009  3.128622640e-001   6.690497006e+001   3.011300580e-001   5.171970757e+001   3.011128209e-001   5.172057324e+001   6.228135619e-001  -1.275281908e+002
  2.300000000e+009  2.816393100e-001   4.558066308e+001   3.060019030e-001   2.184833683e+001   3.059864496e-001   2.184974549e+001   5.957059813e-001  -1.295450624e+002
  2.320000000e+009  2.181328636e-001   3.305457441e+001   3.118938481e-001  -9.681586559e+000   3.118810415e-001  -9.680229620e+000   5.627527517e-001  -1.285155862e+002
