! Created Sun Jun 24 21:09:15 2012
# hz S ma R 100
! 2 Port Network Data from SP1.SP block
! freq  magS11  angS11  magS21  angS21  magS12  angS12  magS22  angS22  
!     
  0.000000000e+007  0  0  1  0  1  0  0  0
  2.000000000e+007  9.217740429e-002  -8.386981314e+000   9.162434119e-001  -5.564890155e+001   9.160653723e-001  -5.564425740e+001   7.254719423e-002   3.084243285e+001
  4.000000000e+007  8.291042013e-002  -2.171822062e+001   8.841750646e-001  -1.088501691e+002   8.840452568e-001  -1.088414921e+002   1.066558466e-001  -4.791159246e+001
  6.000000000e+007  7.642602567e-002  -3.342450096e+001   8.601003416e-001  -1.615023332e+002   8.600369738e-001  -1.614910895e+002   1.018678757e-001  -1.033944096e+002
  8.000000000e+007  4.753079651e-002  -3.661286186e+001   8.403618617e-001   1.460397407e+002   8.403712684e-001   1.460515047e+002   4.629088577e-002  -1.329353496e+002
  1.000000000e+008  6.730146354e-002   3.351541442e+000   8.205654830e-001   9.364505332e+001   8.206398769e-001   9.365534155e+001   5.728585797e-002  -6.303116696e+001
  1.200000000e+008  1.186552258e-001  -2.122284790e+001   8.002181869e-001   4.159449758e+001   8.003397047e-001   4.160193041e+001   1.114545154e-001  -8.907264013e+001
  1.400000000e+008  1.080793476e-001  -5.681431162e+001   7.846931029e-001  -1.021392249e+001   7.848453647e-001  -1.021054637e+001   9.879956367e-002  -1.164704812e+002
  1.600000000e+008  4.668540853e-002  -4.839285414e+001   7.710285010e-001  -6.227084317e+001   7.711851645e-001  -6.227248688e+001   6.426000398e-002  -9.237441460e+001
  1.800000000e+008  1.143291609e-001  -1.817348765e+001   7.520533843e-001  -1.142427692e+002   7.521795673e-001  -1.142490684e+002   1.337525792e-001  -8.166489045e+001
  2.000000000e+008  1.702779790e-001  -5.510131094e+001   7.349386799e-001  -1.655601407e+002   7.350179854e-001  -1.655696220e+002   1.721449869e-001  -1.087150288e+002
  2.200000000e+008  1.309500567e-001  -9.413696101e+001   7.275008576e-001   1.430417684e+002   7.275286638e-001   1.430304781e+002   1.216232967e-001  -1.303711312e+002
  2.400000000e+008  4.779432724e-002  -6.867614345e+001   7.176794511e-001   9.087083437e+001   7.176471816e-001   9.085926456e+001   8.672763599e-002  -8.766833674e+001
  2.600000000e+008  1.406958155e-001  -5.245178889e+001   6.969066822e-001   3.907034535e+001   6.968169226e-001   3.906077614e+001   1.869240495e-001  -8.751808081e+001
  2.800000000e+008  1.811383875e-001  -9.410438216e+001   6.818754674e-001  -1.168404849e+001   6.817506474e-001  -1.168963912e+001   2.214027682e-001  -1.136162026e+002
  3.000000000e+008  1.101714343e-001  -1.393331728e+002   6.799969749e-001  -6.287149218e+001   6.798609250e-001  -6.287271234e+001   1.586471506e-001  -1.297262316e+002
  3.200000000e+008  3.487930665e-002  -3.834973120e+001   6.722287633e-001  -1.151313400e+002   6.720972346e-001  -1.151284215e+002   1.298075768e-001  -1.005666760e+002
  3.400000000e+008  1.415696020e-001  -7.274356646e+001   6.527945966e-001  -1.667971780e+002   6.526853591e-001  -1.667899082e+002   2.111209457e-001  -9.951235360e+001
  3.600000000e+008  1.393933915e-001  -1.229645504e+002   6.408876131e-001   1.424328552e+002   6.408261210e-001   1.424434861e+002   2.287488273e-001  -1.163188528e+002
  3.800000000e+008  2.868510099e-002   1.643384541e+002   6.367089725e-001   9.099150791e+001   6.367007508e-001   9.100288514e+001   1.894344578e-001  -1.189150336e+002
  4.000000000e+008  1.192431568e-001  -3.257746040e+001   6.238599309e-001   3.911549882e+001   6.238968601e-001   3.912593917e+001   2.091226730e-001  -1.093409314e+002
  4.200000000e+008  1.820848497e-001  -8.312749681e+001   6.091791083e-001  -1.187742973e+001   6.092557131e-001  -1.186879223e+001   2.415618114e-001  -1.172313205e+002
  4.400000000e+008  1.143318181e-001  -1.225719358e+002   6.041797348e-001  -6.297190461e+001   6.042905442e-001  -6.296711507e+001   2.094553783e-001  -1.226803379e+002
  4.600000000e+008  7.716444733e-002  -4.775888505e+001   5.937521815e-001  -1.150124032e+002   5.938686513e-001  -1.150128435e+002   2.127209288e-001  -1.082803402e+002
  4.800000000e+008  2.171524440e-001  -7.187059131e+001   5.724025069e-001  -1.661017300e+002   5.724979125e-001  -1.661065655e+002   2.882499078e-001  -1.121677936e+002
  5.000000000e+008  2.452634131e-001  -1.113538124e+002   5.634526813e-001   1.440785775e+002   5.635216738e-001   1.440706902e+002   2.918501347e-001  -1.288665146e+002
  5.200000000e+008  1.419454675e-001  -1.375808701e+002   5.680625788e-001   9.291588804e+001   5.680982519e-001   9.290548594e+001   2.081049509e-001  -1.317042028e+002
  5.400000000e+008  1.297831375e-001  -9.025973942e+001   5.570525624e-001   4.038630042e+001   5.570378813e-001   4.037491920e+001   2.291383612e-001  -1.069285001e+002
  5.600000000e+008  2.452195957e-001  -1.112846307e+002   5.339079686e-001  -1.030433539e+001   5.338511929e-001  -1.031358805e+001   3.268700282e-001  -1.145863176e+002
  5.800000000e+008  2.368407283e-001  -1.489700310e+002   5.290506010e-001  -5.967611644e+001   5.289708382e-001  -5.968210220e+001   3.237768184e-001  -1.316117337e+002
  6.000000000e+008  1.016571892e-001  -1.750283428e+002   5.368017091e-001  -1.108994856e+002   5.367059168e-001  -1.109024124e+002   2.417427812e-001  -1.335591320e+002
  6.200000000e+008  1.138104676e-001  -1.029883121e+002   5.281247735e-001  -1.633593755e+002   5.280222939e-001  -1.633581423e+002   2.573178258e-001  -1.163365225e+002
  6.400000000e+008  1.949891918e-001  -1.351272889e+002   5.113811517e-001   1.457903872e+002   5.112942126e-001   1.457964120e+002   3.227214874e-001  -1.212231386e+002
  6.600000000e+008  1.315774730e-001  -1.776864850e+002   5.074701568e-001   9.545287906e+001   5.074176301e-001   9.546195220e+001   3.128935942e-001  -1.301601380e+002
  6.800000000e+008  3.692669019e-002  -5.761280972e+001   5.045082552e-001   4.385849792e+001   5.044902719e-001   4.386851145e+001   2.894236207e-001  -1.275671808e+002
  7.000000000e+008  1.804559423e-001  -9.412410768e+001   4.919877434e-001  -7.447386279e+000   4.920021166e-001  -7.437267927e+000   3.181288674e-001  -1.268215896e+002
  7.200000000e+008  1.945516740e-001  -1.324901792e+002   4.853224767e-001  -5.790769853e+001   4.853722606e-001  -5.789879092e+001   3.133618302e-001  -1.331943605e+002
  7.400000000e+008  9.443089142e-002  -1.342414545e+002   4.831019039e-001  -1.094864053e+002   4.831791045e-001  -1.094814017e+002   2.773487041e-001  -1.289766892e+002
  7.600000000e+008  1.846557252e-001  -9.526750352e+001   4.668271714e-001  -1.613115491e+002   4.669057852e-001  -1.613110670e+002   3.264850279e-001  -1.217735110e+002
  7.800000000e+008  2.885583609e-001  -1.233961449e+002   4.498763827e-001   1.490437518e+002   4.499451219e-001   1.490407677e+002   3.770617674e-001  -1.313894951e+002
  8.000000000e+008  2.587244026e-001  -1.527363064e+002   4.522463028e-001   9.963804909e+001   4.523038605e-001   9.963177434e+001   3.300204536e-001  -1.424925271e+002
  8.200000000e+008  1.601377937e-001  -1.504677261e+002   4.566221733e-001   4.767954809e+001   4.566529382e-001   4.767037716e+001   2.599348310e-001  -1.322795897e+002
  8.400000000e+008  2.344882246e-001  -1.354760269e+002   4.400585679e-001  -4.316320049e+000   4.400555987e-001  -4.326073479e+000   3.344661969e-001  -1.214296316e+002
  8.600000000e+008  2.950390786e-001  -1.604909063e+002   4.251978702e-001  -5.360659212e+001   4.251692723e-001  -5.361516941e+001   3.931868575e-001  -1.324699409e+002
  8.800000000e+008  2.245613880e-001   1.710259005e+002   4.304015056e-001  -1.029614534e+002   4.303515950e-001  -1.029682166e+002   3.483296664e-001  -1.431326883e+002
  9.000000000e+008  1.050725640e-001  -1.759897875e+002   4.364437948e-001  -1.548287815e+002   4.363756626e-001  -1.548329086e+002   2.881086261e-001  -1.363774859e+002
  9.200000000e+008  1.770575352e-001  -1.547274082e+002   4.264497639e-001   1.532239462e+002   4.263739264e-001   1.532238506e+002   3.315654933e-001  -1.286620812e+002
  9.400000000e+008  1.888021511e-001   1.763275173e+002   4.176050280e-001   1.028351984e+002   4.175396735e-001   1.028392504e+002   3.624453645e-001  -1.345134146e+002
  9.600000000e+008  7.241472383e-002   1.572512453e+002   4.165033556e-001   5.204215824e+001   4.164581952e-001   5.204880541e+001   3.421363794e-001  -1.376658337e+002
  9.800000000e+008  1.175789330e-001  -1.139015195e+002   4.106365990e-001   5.852348201e-001   4.106115348e-001   5.932156099e-001   3.432076314e-001  -1.356966399e+002
  1.000000000e+009  2.081305318e-001  -1.417542430e+002   4.029858911e-001  -5.007187784e+001   4.029845414e-001  -5.006301419e+001   3.522512959e-001  -1.389695581e+002
  1.020000000e+009  1.714541139e-001  -1.624209358e+002   4.015784898e-001  -1.009831605e+002   4.016054760e-001  -1.009755090e+002   3.183114673e-001  -1.402519189e+002
  1.040000000e+009  1.531931598e-001  -1.367140085e+002   3.941777149e-001  -1.529680675e+002   3.942208672e-001  -1.529634716e+002   3.193768459e-001  -1.314912410e+002
  1.060000000e+009  2.687796504e-001  -1.414664768e+002   3.775352612e-001   1.564020930e+002   3.775817863e-001   1.564036974e+002   3.807604813e-001  -1.329314773e+002
  1.080000000e+009  3.098171267e-001  -1.660624134e+002   3.711552798e-001   1.075077397e+002   3.712015411e-001   1.075064459e+002   3.828476218e-001  -1.435600480e+002
  1.100000000e+009  2.468671938e-001   1.778926167e+002   3.774203864e-001   5.720895972e+001   3.774602559e-001   5.720459647e+001   3.071314371e-001  -1.463863634e+002
  1.120000000e+009  2.239117079e-001  -1.720708281e+002   3.744295736e-001   4.977549532e+000   3.744539956e-001   4.970792215e+000   2.981057842e-001  -1.310037704e+002
  1.140000000e+009  2.934539378e-001  -1.799661145e+002   3.599926513e-001  -4.569142107e+001   3.599962652e-001  -4.569925313e+001   3.765297553e-001  -1.313505119e+002
  1.160000000e+009  2.865481046e-001   1.567843553e+002   3.558442606e-001  -9.460413326e+001   3.558301974e-001  -9.461174289e+001   3.866544016e-001  -1.420517281e+002
  1.180000000e+009  1.861862845e-001   1.420895210e+002   3.632456434e-001  -1.448950242e+002   3.632142532e-001  -1.449017342e+002   3.250427187e-001  -1.457202931e+002
  1.200000000e+009  1.463416183e-001   1.649453631e+002   3.642066541e-001   1.630470702e+002   3.641589641e-001   1.630423527e+002   3.060888951e-001  -1.361159067e+002
  1.220000000e+009  1.870087743e-001   1.584929315e+002   3.567594339e-001   1.116819267e+002   3.567048403e-001   1.116804649e+002   3.456566795e-001  -1.342400934e+002
  1.240000000e+009  1.319569429e-001   1.373872862e+002   3.525833352e-001   6.104616977e+001   3.525335784e-001   6.104795936e+001   3.525608074e-001  -1.381022080e+002
  1.260000000e+009  6.282714887e-002  -1.679231678e+002   3.498594693e-001   9.923762671e+000   3.498176443e-001   9.927619775e+000   3.433787098e-001  -1.384360193e+002
  1.280000000e+009  1.665936423e-001  -1.576199719e+002   3.445317771e-001  -4.111001920e+001   3.445016631e-001  -4.110415383e+001   3.467514828e-001  -1.393236791e+002
  1.300000000e+009  1.938155051e-001  -1.781601533e+002   3.414851903e-001  -9.194007076e+001   3.414721734e-001  -9.193338543e+001   3.261383827e-001  -1.412681240e+002
  1.320000000e+009  1.645360202e-001  -1.755202680e+002   3.378265427e-001  -1.435761301e+002   3.378310963e-001  -1.435700539e+002   3.045648643e-001  -1.350794582e+002
  1.340000000e+009  2.311827335e-001  -1.669229619e+002   3.262976623e-001   1.650667534e+002   3.263133298e-001   1.650714127e+002   3.477401701e-001  -1.304152835e+002
  1.360000000e+009  3.028622946e-001   1.761637788e+002   3.161426994e-001   1.155228381e+002   3.161641909e-001   1.155256974e+002   3.796317432e-001  -1.374794922e+002
  1.380000000e+009  2.906687479e-001   1.574212593e+002   3.170139093e-001   6.606655293e+001   3.170404389e-001   6.606769076e+001   3.359099043e-001  -1.444604672e+002
  1.400000000e+009  2.464065142e-001   1.534967728e+002   3.191765895e-001   1.467061382e+001   3.192027654e-001   1.466897985e+001   2.826935207e-001  -1.357778860e+002
  1.420000000e+009  2.755030846e-001   1.528478028e+002   3.108964439e-001  -3.685045990e+001   3.109142695e-001  -3.685451773e+001   3.330113328e-001  -1.263766563e+002
  1.440000000e+009  2.966784071e-001   1.362450451e+002   3.028540457e-001  -8.646353470e+001   3.028598039e-001  -8.646900608e+001   3.794493379e-001  -1.328557235e+002
  1.460000000e+009  2.395884474e-001   1.176341635e+002   3.051355828e-001  -1.359681489e+002   3.051310298e-001  -1.359741112e+002   3.512487634e-001  -1.400381597e+002
  1.480000000e+009  1.605710947e-001   1.184432338e+002   3.095587076e-001   1.727279647e+002   3.095402424e-001   1.727219763e+002   3.048838174e-001  -1.360102567e+002
  1.500000000e+009  1.639553509e-001   1.266725627e+002   3.065396141e-001   1.208642809e+002   3.065082280e-001   1.208597111e+002   3.217541245e-001  -1.283699327e+002
  1.520000000e+009  1.456809667e-001   1.116599359e+002   3.012414150e-001   6.982517424e+001   3.012047511e-001   6.982291536e+001   3.505459329e-001  -1.290775485e+002
  1.540000000e+009  6.196272162e-002   1.179669692e+002   2.981004067e-001   1.892705227e+001   2.980624588e-001   1.892672995e+001   3.538534478e-001  -1.309994613e+002
  1.560000000e+009  1.064270140e-001   1.786078249e+002   2.946327351e-001  -3.215389996e+001   2.945967180e-001  -3.215199549e+001   3.520888470e-001  -1.317509140e+002
  1.580000000e+009  1.665654599e-001   1.639237790e+002   2.913841478e-001  -8.317179429e+001   2.913545645e-001  -8.316798425e+001   3.399251618e-001  -1.324796796e+002
  1.600000000e+009  1.612184887e-001   1.572249716e+002   2.881253372e-001  -1.346482599e+002   2.881056262e-001  -1.346431899e+002   3.217215814e-001  -1.284547034e+002
  1.620000000e+009  1.947670837e-001   1.657773811e+002   2.799452369e-001   1.737761564e+002   2.799362353e-001   1.737813371e+002   3.483571833e-001  -1.225894154e+002
  1.640000000e+009  2.690000894e-001   1.548916305e+002   2.699701550e-001   1.235802398e+002   2.699690585e-001   1.235850944e+002   3.899983594e-001  -1.255601187e+002
  1.660000000e+009  2.891267558e-001   1.359723572e+002   2.668936703e-001   7.417676349e+001   2.669009164e-001   7.418068206e+001   3.778282646e-001  -1.318062268e+002
  1.680000000e+009  2.570152148e-001   1.247077406e+002   2.684061769e-001   2.347289869e+001   2.684193303e-001   2.347522120e+001   3.291559565e-001  -1.295359179e+002
  1.700000000e+009  2.574228857e-001   1.229355315e+002   2.640303886e-001  -2.819010527e+001   2.640450370e-001  -2.818992560e+001   3.449791299e-001  -1.195791686e+002
  1.720000000e+009  2.853164521e-001   1.107431293e+002   2.556650925e-001  -7.851208980e+001   2.556762681e-001  -7.851387740e+001   4.022865442e-001  -1.204624911e+002
  1.740000000e+009  2.605469511e-001   9.121192385e+001   2.534675089e-001  -1.278229138e+002   2.534735829e-001  -1.278262937e+002   4.094501400e-001  -1.266855703e+002
  1.760000000e+009  1.862946997e-001   7.923337884e+001   2.567972031e-001  -1.782833081e+002   2.567956679e-001  -1.782878011e+002   3.730753773e-001  -1.277232466e+002
  1.780000000e+009  1.492179489e-001   8.511002134e+001   2.567750411e-001   1.299255006e+002   2.567642437e-001   1.299208594e+002   3.657407453e-001  -1.216632206e+002
  1.800000000e+009  1.448450549e-001   7.649161558e+001   2.518609691e-001   7.846145714e+001   2.518428323e-001   7.845753735e+001   3.992838952e-001  -1.191388883e+002
  1.820000000e+009  8.384870774e-002   5.703042047e+001   2.473276447e-001   2.768474872e+001   2.473034241e-001   2.768195808e+001   4.222507976e-001  -1.209575810e+002
  1.840000000e+009  3.652802357e-002   1.457270225e+002   2.444156763e-001  -2.307410075e+001   2.443885574e-001  -2.307522705e+001   4.258567682e-001  -1.228564133e+002
  1.860000000e+009  1.135376567e-001   1.455280417e+002   2.421105506e-001  -7.405803672e+001   2.420837819e-001  -7.405744028e+001   4.184645348e-001  -1.235788550e+002
  1.880000000e+009  1.309319499e-001   1.309750412e+002   2.394459981e-001  -1.254930247e+002   2.394213172e-001  -1.254910876e+002   4.084985589e-001  -1.216972449e+002
  1.900000000e+009  1.437899248e-001   1.382910684e+002   2.333719630e-001  -1.771876454e+002   2.333515445e-001  -1.771843525e+002   4.247010350e-001  -1.180161934e+002
  1.920000000e+009  2.145690146e-001   1.334257047e+002   2.243633429e-001   1.321243977e+002   2.243494089e-001   1.321285598e+002   4.637890678e-001  -1.184152836e+002
  1.940000000e+009  2.615134744e-001   1.134809829e+002   2.189257700e-001   8.265861506e+001   2.189178647e-001   8.266283697e+001   4.760976493e-001  -1.225025017e+002
  1.960000000e+009  2.491998372e-001   9.573164629e+001   2.190034045e-001   3.262010369e+001   2.190007818e-001   3.262370978e+001   4.490005008e-001  -1.240491731e+002
  1.980000000e+009  2.297762529e-001   9.001639362e+001   2.174170132e-001  -1.890458513e+001   2.174189006e-001  -1.890195479e+001   4.388682351e-001  -1.194089136e+002
  2.000000000e+009  2.565969978e-001   8.226074440e+001   2.100602696e-001  -6.998990722e+001   2.100640583e-001  -6.998869408e+001   4.812472160e-001  -1.169528305e+002
  2.020000000e+009  2.652597498e-001   6.284234480e+001   2.041732767e-001  -1.194022674e+002   2.041762229e-001  -1.194024029e+002   5.136548389e-001  -1.202609329e+002
  2.040000000e+009  2.172017064e-001   4.232597448e+001   2.046027441e-001  -1.688286977e+002   2.046031680e-001  -1.688302065e+002   5.030149130e-001  -1.235272744e+002
  2.060000000e+009  1.531983715e-001   3.533195853e+001   2.065419963e-001   1.400969761e+002   2.065386060e-001   1.400949095e+002   4.820295670e-001  -1.222808992e+002
  2.080000000e+009  1.409541243e-001   3.455316830e+001   2.037634188e-001   8.830115745e+001   2.037561330e-001   8.829864545e+001   4.965564244e-001  -1.192657176e+002
  2.100000000e+009  1.220722451e-001   1.244001988e+001   1.983046677e-001   3.737115077e+001   1.982928930e-001   3.736882195e+001   5.281421104e-001  -1.194884059e+002
  2.120000000e+009  5.233642594e-002  -2.570930313e+001   1.946313876e-001  -1.286929522e+001   1.946166769e-001  -1.287086376e+001   5.436067888e-001  -1.216421435e+002
  2.140000000e+009  3.587361704e-002   1.451922036e+002   1.931617356e-001  -6.333230002e+001   1.931457239e-001  -6.333295678e+001   5.408045599e-001  -1.232649042e+002
  2.160000000e+009  8.264258140e-002   1.077834465e+002   1.919508566e-001  -1.144897828e+002   1.919340376e-001  -1.144896818e+002   5.323159205e-001  -1.231404808e+002
  2.180000000e+009  8.721985242e-002   1.031090743e+002   1.883839184e-001  -1.661863758e+002   1.883670491e-001  -1.661852092e+002   5.372157098e-001  -1.214854135e+002
  2.200000000e+009  1.347056756e-001   1.099981987e+002   1.814984150e-001   1.426087620e+002   1.814838782e-001   1.426107042e+002   5.635122491e-001  -1.208763486e+002
  2.220000000e+009  2.036246459e-001   9.158594084e+001   1.749632962e-001   9.276969271e+001   1.749515471e-001   9.277199174e+001   5.865966612e-001  -1.228564122e+002
  2.240000000e+009  2.286144315e-001   6.775289945e+001   1.727512867e-001   4.336539750e+001   1.727420583e-001   4.336776208e+001   5.825347379e-001  -1.252814525e+002
  2.260000000e+009  2.109809891e-001   5.203611103e+001   1.727462578e-001  -7.313355374e+000   1.727387703e-001  -7.310913428e+000   5.647838623e-001  -1.249776571e+002
  2.280000000e+009  2.147471328e-001   4.654732778e+001   1.689510338e-001  -5.888622991e+001   1.689451449e-001  -5.888435973e+001   5.750676237e-001  -1.226753976e+002
  2.300000000e+009  2.477214899e-001   3.235313045e+001   1.620940597e-001  -1.091738683e+002   1.620887791e-001  -1.091723720e+002   6.083589713e-001  -1.229958223e+002
  2.320000000e+009  2.469983647e-001   9.878428308e+000   1.585319938e-001  -1.580608182e+002   1.585267064e-001  -1.580596927e+002   6.223928559e-001  -1.256265289e+002
