!Experimental Test Case								
!
# MHZ S MA R 50

950 0.914 -126.902 0.369 -146.89 648.6e-6 21.58 0.792 -44.408
955 0.912 -134.105 0.408 -157.962 1.285e-3 20.058 0.785 -49.637
960 0.91 -141.93 0.461 -167.138 1.022e-3 3.902 0.779 -55.135
965 0.907 -148.947 0.514 -176.028 1.421e-3 -24.608 0.771 -60.463
970 0.908 -156.8 0.57 175.449 1.308e-3 -0.731 0.763 -65.832
975 0.906 -164.579 0.613 165.7 1.234e-3 -34.01 0.754 -71.117
980 0.906 -172.771 0.703 155.229 1.426e-3 7.839 0.744 -76.597
985 0.905 178.9 0.784 148.123 1.659e-3 -7.497 0.733 -81.95
990 0.906 170.317 0.873 137.696 1.01e-3 -34.364 0.722 -87.24
995 0.908 161.545 0.977 128.47 1.088e-3 -30.83 0.709 -92.766
1000 0.91 152.659 1.085 117.547 1.115e-3 -20.003 0.694 -98.514
1005 0.915 144.103 1.307 108.215 1.072e-3 -42.155 0.681 -103.948
1010 0.916 135.236 1.446 102.255 1.814e-3 -35.675 0.664 -109.656
1015 0.92 126.507 1.609 90.166 1.919e-3 -10.524 0.643 -115.653
1020 0.918 116.809 1.863 80.999 1.56e-3 -69.691 0.624 -121.387
1025 0.921 107.438 2.009 71.544 1.208e-3 -24.786 0.604 -127.398
1030 0.925 98.174 2.27 57.391 231.2e-6 -67.019 0.578 -133.477
1035 0.929 88.891 2.553 47.385 1.977e-3 -87.325 0.554 -139.791
1040 0.931 80.058 2.761 34.919 821.5e-6 -38.581 0.528 -145.904
1045 0.935 70.879 3.11 21.231 1.45e-3 -74.759 0.5 -152.074
1050 0.934 61.936 3.508 8.303 1.359e-3 -103.287 0.471 -158.461
