# GHz S MA R 50

8	0.70585908	-134.93966	0.17567812	134.93973	0.14231045	115.80456	0.13425808	138.22351	0.1146418	146.49122	
	0.15266548	137.03108	0.14343311	131.95386	0.14278471	143.19301	0.13585025	148.65904	0.16740091	137.65944	
	0.1658155	151.13762	0.13761446	129.50689	0.13502899	137.17555	0.15981468	147.45304	0.14300347	136.52374	
	0.15833172	131.04846	0.13151146	137.44135	0.17567812	134.93973	0.043723811	-134.93966	0.015704524	-99.588798	
	0.031491429	-127.55331	0.026890258	-119.2856	0.035853115	-129.01491	0.033684917	-134.09212	0.033532642	-122.85297	
	0.031904099	-117.38694	0.041049276	-131.26597	0.040660508	-117.78779	0.033745182	-139.41851	0.033111184	-131.74985	
	0.039189016	-121.47237	0.035066649	-132.40167	0.03882537	-137.87695	0.032248632	-131.48405	0.14231045	115.80456	
	0.015704524	-99.588798	0.028691699	-173.20999	0.025510061	-146.68848	0.021782819	-138.42077	0.029043304	-148.15007	
	0.027286926	-153.22729	0.027163574	-141.98814	0.02584435	-136.52211	0.033252525	-150.40113	0.032937598	-136.92295	
	0.027335744	-158.55368	0.026822165	-150.88502	0.031745596	-140.60754	0.028406216	-151.53684	0.03145102	-157.01211	
	0.026123443	-150.61922	0.13425808	138.22351	0.031491429	-127.55331	0.025510061	-146.68848	0.025536624	-128.37211	
	0.020554727	-66.600182	0.027399941	-125.73113	0.025742945	-130.80835	0.025626572	-119.56919	0.024381994	-114.10317	
	0.031370991	-127.98219	0.031073884	-114.50401	0.025789	-136.13474	0.025304482	-128.46608	0.029949329	-118.18859	
	0.026798902	-129.11789	0.029671421	-134.59317	0.024645295	-128.20028	0.1146418	146.49122	0.026890258	-119.2856	
	0.021782819	-138.42077	0.020554727	-66.600182	0.018619528	-111.83668	0.023396572	-117.46342	0.021981677	-122.54063	
	0.021882307	-111.30148	0.020819573	-105.83546	0.026787416	-119.71448	0.026533719	-106.2363	0.022021003	-127.86703	
	0.021607277	-120.19837	0.025573471	-109.92088	0.02288335	-120.85018	0.025336168	-126.32546	0.021044404	-119.93257	
	0.15266548	137.03108	0.035853115	-129.01491	0.029043304	-148.15007	0.027399941	-125.73113	0.023396572	-117.46342	
	0.03301903	-130.75697	0.025270668	-121.20563	0.026729002	-107.99435	0.025430884	-102.52833	0.035672098	-129.17462	
	0.035334256	-115.69644	0.029324791	-137.32717	0.028773843	-129.65851	0.034055519	-119.38102	0.030473155	-130.31032	
	0.033739509	-135.7856	0.028024279	-129.39271	0.14343311	131.95386	0.033684917	-134.09212	0.027286926	-153.22729	
	0.025742945	-130.80835	0.021981677	-122.54063	0.025270668	-121.20563	0.02914617	-140.9114	0.02511258	-113.07157	
	0.023892965	-107.60554	0.033514847	-134.25184	0.033197436	-120.77365	0.02755139	-142.40438	0.02703376	-134.73572	
	0.03199603	-124.45824	0.028630307	-135.38754	0.03169913	-140.86281	0.026329526	-134.46992	0.14278471	143.19301	
	0.033532642	-122.85297	0.027163574	-141.98814	0.025626572	-119.56919	0.021882307	-111.30148	0.026729002	-107.99435	
	0.02511258	-113.07157	0.028883251	-118.43309	0.025450471	-96.189563	0.033363341	-123.01268	0.033047365	-109.5345	
	0.027426842	-131.16523	0.026911552	-123.49657	0.03185139	-113.21909	0.028500882	-124.14839	0.031555832	-129.62366	
	0.026210501	-123.23077	0.13585025	148.65904	0.031904099	-117.38694	0.02584435	-136.52211	0.024381994	-114.10317	
	0.020819573	-105.83546	0.025430884	-102.52833	0.023892965	-107.60554	0.025450471	-96.189563	0.026145894	-107.50104	
	0.03174302	-117.54666	0.03144239	-104.06848	0.026094833	-125.69921	0.025604568	-118.03055	0.030304499	-107.75306	
	0.027116711	-118.68236	0.030023295	-124.15764	0.024937565	-117.76475	0.16740091	137.65944	0.041049276	-131.26597	
	0.033252525	-150.40113	0.031370991	-127.98219	0.026787416	-119.71448	0.035672098	-129.17462	0.033514847	-134.25184	
	0.033363341	-123.01268	0.03174302	-117.54666	0.03970071	-129.50024	0.03715251	-107.97981	0.030359982	-133.60312	
	0.029789585	-125.93446	0.035714563	-112.815	0.03195768	-123.7443	0.035383158	-129.21957	0.029389505	-122.82668	
	0.1658155	151.13762	0.040660508	-117.78779	0.032937598	-136.92295	0.031073884	-114.50401	0.026533719	-106.2363	
	0.035334256	-115.69644	0.033197436	-120.77365	0.033047365	-109.5345	0.03144239	-104.06848	0.03715251	-107.97981	
	0.038952279	-102.54388	0.030072451	-120.12494	0.029507455	-112.45628	0.035376319	-99.336818	0.031655017	-110.26612	
	0.035048052	-115.74139	0.029111164	-109.3485	0.13761446	129.50689	0.033745182	-139.41851	0.027335744	-158.55368	
	0.025789	-136.13474	0.022021003	-127.86703	0.029324791	-137.32717	0.02755139	-142.40438	0.027426842	-131.16523	
	0.026094833	-125.69921	0.030359982	-133.60312	0.030072451	-120.12494	0.026829391	-145.80533	0.018657623	-109.67483	
	0.0293597	-120.96755	0.026271297	-131.89685	0.029087263	-137.37212	0.02416009	-130.97923	0.13502899	137.17555	
	0.033111184	-131.74985	0.026822165	-150.88502	0.025304482	-128.46608	0.021607277	-120.19837	0.028773843	-129.65851	
	0.02703376	-134.73572	0.026911552	-123.49657	0.025604568	-118.03055	0.029789585	-125.93446	0.029507455	-112.45628	
	0.018657623	-109.67483	0.025830731	-130.46801	0.028808095	-113.29889	0.025777717	-124.22819	0.028540777	-129.70346	
	0.023706175	-123.31057	0.15981468	147.45304	0.039189016	-121.47237	0.031745596	-140.60754	0.029949329	-118.18859	
	0.025573471	-109.92088	0.034055519	-119.38102	0.03199603	-124.45824	0.03185139	-113.21909	0.030304499	-107.75306	
	0.035714563	-112.815	0.035376319	-99.336818	0.0293597	-120.96755	0.028808095	-113.29889	0.036183951	-109.91304	
	0.029339727	-108.65128	0.033962978	-121.73702	0.028209894	-115.34413	0.14300347	136.52374	0.035066649	-132.40167	
	0.028406216	-151.53684	0.026798902	-129.11789	0.02288335	-120.85018	0.030473155	-130.31032	0.028630307	-135.38754	
	0.028500882	-124.14839	0.027116711	-118.68236	0.03195768	-123.7443	0.031655017	-110.26612	0.026271297	-131.89685	
	0.025777717	-124.22819	0.029339727	-108.65128	0.028971821	-131.77164	0.030390348	-132.66632	0.025242441	-126.27343	
	0.15833172	131.04846	0.03882537	-137.87695	0.03145102	-157.01211	0.029671421	-134.59317	0.025336168	-126.32546	
	0.033739509	-135.7856	0.03169913	-140.86281	0.031555832	-129.62366	0.030023295	-124.15764	0.035383158	-129.21957	
	0.035048052	-115.74139	0.029087263	-137.37212	0.028540777	-129.70346	0.033962978	-121.73702	0.030390348	-132.66632	
	0.035515545	-142.7222	0.023824521	-121.24125	0.13151146	137.44135	0.032248632	-131.48405	0.026123443	-150.61922	
	0.024645295	-128.20028	0.021044404	-119.93257	0.028024279	-129.39271	0.026329526	-134.46992	0.026210501	-123.23077	
	0.024937565	-117.76475	0.029389505	-122.82668	0.029111164	-109.3485	0.02416009	-130.97923	0.023706175	-123.31057	
	0.028209894	-115.34413	0.025242441	-126.27343	0.023824521	-121.24125	0.024502469	-129.93641	
9	0.07204917	139.63318	0.24789128	49.375829	0.20080771	30.240662	0.18944537	52.659605	0.16176575	60.927317	
	0.2154192	51.467176	0.20239184	46.38996	0.20147691	57.629113	0.191692	63.095138	0.23621169	52.09554	
	0.23397458	65.57372	0.19418141	43.942992	0.19053317	51.611651	0.22550711	61.889136	0.20178559	50.959837	
	0.22341457	45.484561	0.18556975	51.877452	0.24789128	49.375829	0.0044630215	139.63318	0.027580379	6.485262	
	0.0020775646	81.852605	0.0017740144	90.120317	0.0024129305	84.656722	0.0022670098	79.579506	0.0022567616	90.818659	
	0.00214716	96.284684	0.003566854	133.26015	0.0035330732	146.73833	0.0029321866	125.1076	0.0028770972	132.77626	
	0.0034052122	143.05374	0.0030470115	132.12444	0.0033736143	126.64917	0.0028021483	133.04206	0.20080771	30.240662	
	0.027580379	6.485262	0.0029286484	101.36284	0.0016829595	62.717438	0.0014370645	70.98515	0.0019546272	65.521555	
	0.0018364222	60.444339	0.0018281205	71.683492	0.0017393362	77.149517	0.0028893786	114.12498	0.002862014	127.60316	
	0.0023752577	105.97243	0.0023306318	113.64109	0.0027584385	123.91858	0.0024682732	112.98928	0.0027328422	107.514	
	0.0022699184	113.90689	0.18944537	52.659605	0.0020775646	81.852605	0.0016829595	62.717438	0.0026066004	146.20073	
	0.017118843	3.2124646	0.0018440281	87.940498	0.0017325115	82.863282	0.0017246796	94.102435	0.001640919	99.56846	
	0.0027258884	136.54392	0.0027000721	150.0221	0.002240858	128.39138	0.0021987572	136.06003	0.0026023573	146.33752	
	0.0023286104	135.40822	0.0025782093	129.93294	0.0021414792	136.32584	0.16176575	60.927317	0.0017740144	90.120317	
	0.0014370645	70.98515	0.017118843	3.2124646	0.0019005515	162.73615	0.0015745996	96.20821	0.0014793765	91.130994	
	0.0014726889	102.37015	0.0014011664	107.83617	0.0023276124	144.81163	0.0023055681	158.28982	0.0019134492	136.65909	
	0.0018774997	144.32775	0.0022221303	154.60523	0.0019883802	143.67593	0.0022015105	138.20066	0.0018285905	144.59355	
	0.2154192	51.467176	0.0024129305	84.656722	0.0019546272	65.521555	0.0018440281	87.940498	0.0015745996	96.20821	
	0.0033703522	143.81587	0.0070940704	17.120012	0.0067347145	13.543558	0.006407637	19.009584	0.0030996202	135.35149	
	0.0030702645	148.82967	0.0025480899	127.19895	0.0025002169	134.8676	0.0029591524	145.14509	0.0026478736	134.21579	
	0.0029316937	128.74051	0.0024350858	135.13341	0.20239184	46.38996	0.0022670098	79.579506	0.0018364222	60.444339	
	0.0017325115	82.863282	0.0014793765	91.130994	0.0070940704	17.120012	0.0029750377	133.66144	0.0063274363	8.4663427	
	0.0060201387	13.932368	0.0029121724	130.27428	0.0028845919	143.75246	0.0023939956	122.12173	0.0023490177	129.79039	
	0.0027801993	140.06787	0.0024877449	129.13857	0.0027544011	123.6633	0.0022878253	130.05619	0.20147691	57.629113	
	0.0022567616	90.818659	0.0018281205	71.683492	0.0017246796	94.102435	0.0014726889	102.37015	0.0067347145	13.543558	
	0.0063274363	8.4663427	0.0029482007	156.13975	0.0053903881	9.4511053	0.0028990077	141.51343	0.0028715519	154.99161	
	0.0023831734	133.36088	0.0023383988	141.02954	0.0027676312	151.30703	0.0024764988	140.37773	0.0027419496	134.90245	
	0.0022774831	141.29534	0.191692	63.095138	0.00214716	96.284684	0.0017393362	77.149517	0.001640919	99.56846	
	0.0014011664	107.83617	0.006407637	19.009584	0.0060201387	13.932368	0.0053903881	9.4511053	0.0026687905	167.0718	
	0.0027582148	146.97946	0.0027320924	160.45764	0.0022674324	138.82691	0.0022248323	146.49557	0.0026332187	156.77305	
	0.0023562254	145.84375	0.0026087844	140.36848	0.0021668751	146.76137	0.23621169	52.09554	0.003566854	133.26015	
	0.0028893786	114.12498	0.0027258884	136.54392	0.0023276124	144.81163	0.0030996202	135.35149	0.0029121724	130.27428	
	0.0028990077	141.51343	0.0027582148	146.97946	0.0040523714	145.0726	0.0025197885	35.627854	0.0023956704	71.763886	
	0.002350661	79.432545	0.0021792572	48.938815	0.001950017	38.009515	0.0021590352	32.534239	0.0017933102	38.92713	
	0.23397458	65.57372	0.0035330732	146.73833	0.002862014	127.60316	0.0027000721	150.0221	0.0023055681	158.28982	
	0.0030702645	148.82967	0.0028845919	143.75246	0.0028715519	154.99161	0.0027320924	160.45764	0.0025197885	35.627854	
	0.0039759769	172.02896	0.0023729816	85.242067	0.0023283985	92.910726	0.002158618	62.416995	0.0019315488	51.487696	
	0.0021385876	46.01242	0.0017763262	52.405311	0.19418141	43.942992	0.0029321866	125.1076	0.0023752577	105.97243	
	0.002240858	128.39138	0.0019134492	136.65909	0.0025480899	127.19895	0.0023939956	122.12173	0.0023831734	133.36088	
	0.0022674324	138.82691	0.0023956704	71.763886	0.0023729816	85.242067	0.002738557	128.7675	0.01152645	9.2452697	
	0.0017914915	40.786267	0.0016030411	29.856968	0.0017748678	24.381691	0.0014742179	30.774583	0.19053317	51.611651	
	0.0028770972	132.77626	0.0023306318	113.64109	0.0021987572	136.06003	0.0018774997	144.32775	0.0025002169	134.8676	
	0.0023490177	129.79039	0.0023383988	141.02954	0.0022248323	146.49557	0.002350661	79.432545	0.0023283985	92.910726	
	0.01152645	9.2452697	0.0026366207	144.10482	0.0017578333	48.454926	0.0015729235	37.525627	0.0017415219	32.050351	
	0.0014465206	38.443242	0.22550711	61.889136	0.0034052122	143.05374	0.0027584385	123.91858	0.0026023573	146.33752	
	0.0022221303	154.60523	0.0029591524	145.14509	0.0027801993	140.06787	0.0027676312	151.30703	0.0026332187	156.77305	
	0.0021792572	48.938815	0.002158618	62.416995	0.0017914915	40.786267	0.0017578333	48.454926	0.0036934052	164.65979	
	0.0044972082	18.980818	0.0019419535	82.469248	0.0016130005	88.862139	0.20178559	50.959837	0.0030470115	132.12444	
	0.0024682732	112.98928	0.0023286104	135.40822	0.0019883802	143.67593	0.0026478736	134.21579	0.0024877449	129.13857	
	0.0024764988	140.37773	0.0023562254	145.84375	0.001950017	38.009515	0.0019315488	51.487696	0.0016030411	29.856968	
	0.0015729235	37.525627	0.0044972082	18.980818	0.0029572414	142.80119	0.0017376757	71.539948	0.0014433259	77.93284	
	0.22341457	45.484561	0.0033736143	126.64917	0.0027328422	107.514	0.0025782093	129.93294	0.0022015105	138.20066	
	0.0029316937	128.74051	0.0027544011	123.6633	0.0027419496	134.90245	0.0026087844	140.36848	0.0021590352	32.534239	
	0.0021385876	46.01242	0.0017748678	24.381691	0.0017415219	32.050351	0.0019419535	82.469248	0.0017376757	71.539948	
	0.003625179	131.85064	0.007027119	16.580633	0.18556975	51.877452	0.0028021483	133.04206	0.0022699184	113.90689	
	0.0021414792	136.32584	0.0018285905	144.59355	0.0024350858	135.13341	0.0022878253	130.05619	0.0022774831	141.29534	
	0.0021668751	146.76137	0.0017933102	38.92713	0.0017763262	52.405311	0.0014742179	30.774583	0.0014465206	38.443242	
	0.0016130005	88.862139	0.0014433259	77.93284	0.007027119	16.580633	0.0025010411	144.63642	
10	0.00099891336	-102.44227	0.24860356	-11.478479	0.2013847	-30.613646	0.18998971	-8.1947031	0.16223056	0.07300881	
	0.21603817	-9.3871325	0.20297338	-14.464348	0.20205583	-3.2251954	0.1922428	2.2408297	0.23689041	-8.7587687	
	0.23464688	4.719412	0.19473936	-16.911316	0.19108064	-9.2426571	0.22615507	1.0348279	0.20236539	-9.8944714	
	0.22405652	-15.369748	0.18610295	-8.9768563	0.24860356	-11.478479	6.1876796e-05	-102.44227	0.029212485	-0.083754235	
	0.0030082479	-0.88921126	0.0025687167	7.3785007	0.0032601683	-0.92966543	0.0030630113	-6.0068812	0.0030491648	5.2322716	
	0.0029010793	10.698297	0.00091475221	-3.6424761	0.00090608882	9.8357045	0.00075198597	-11.795024	0.00073785781	-4.1263645	
	0.00087329772	6.1511205	0.00078143387	-4.7781788	0.00086519415	-10.253455	0.00071863648	-3.8605637	0.2013847	-30.613646	
	0.029212485	-0.083754235	4.0603743e-05	-140.7126	0.0024368721	-20.024378	0.0020808239	-11.756667	0.0026409437	-20.064833	
	0.002481234	-25.142048	0.0024700175	-13.902896	0.0023500588	-8.4368705	0.00074100749	-22.777643	0.00073398959	-9.2994627	
	0.00060915647	-30.930191	0.00059771177	-23.261532	0.00070742671	-12.984047	0.00063301115	-23.913346	0.0007008623	-29.388622	
	0.00058214127	-22.995731	0.18998971	-8.1947031	0.0030082479	-0.88921126	0.0024368721	-20.024378	3.6138764e-05	-95.874718	
	0.01910166	-0.092480189	0.0024915107	2.3541106	0.0023408379	-2.7231052	0.002330256	8.5160476	0.002217085	13.982073	
	0.00069907892	-0.35870012	0.00069245811	13.119481	0.00057468846	-8.5112478	0.00056389133	-0.84258856	0.00066739825	9.4348965	
	0.00059719336	-1.4944028	0.00066120527	-6.9696791	0.00054920186	-0.57678775	0.16223056	0.07300881	0.0025687167	7.3785007	
	0.0020808239	-11.756667	0.01910166	-0.092480189	2.634987e-05	-79.339295	0.0021274793	10.621822	0.0019988211	5.5446068	
	0.0019897853	16.78376	0.0018931496	22.249785	0.00059693741	7.9090118	0.00059128397	21.387192	0.00049072148	-0.24353581	
	0.0004815019	7.4251234	0.00056988556	17.702608	0.00050993822	6.7733091	0.00056459744	1.2980329	0.00046895869	7.6909242	
	0.21603817	-9.3871325	0.0032601683	-0.92966543	0.0026409437	-20.064833	0.0024915107	2.3541106	0.0021274793	10.621822	
	4.672767e-05	-98.259577	0.009150018	-0.26749251	0.0092752296	-0.26978852	0.0088247697	5.1962366	0.00079492585	-1.5511295	
	0.00078739731	11.927051	0.00065348089	-9.7036771	0.00064120342	-2.0350179	0.00075890162	8.2424671	0.00067907132	-2.6868321	
	0.00075185956	-8.1621084	0.00062449996	-1.7692171	0.20297338	-14.464348	0.0030630113	-6.0068812	0.002481234	-25.142048	
	0.0023408379	-2.7231052	0.0019988211	5.5446068	0.009150018	-0.26749251	4.12469e-05	-108.41401	0.0087143151	-5.3470043	
	0.0082910965	0.11902084	0.00074685314	-6.6283452	0.00073977988	6.8498355	0.00061396199	-14.780893	0.00060242699	-7.1122336	
	0.00071300745	3.1652514	0.00063800485	-7.7640479	0.00070639126	-13.239324	0.00058673366	-6.8464328	0.20205583	-3.2251954	
	0.0030491648	5.2322716	0.0024700175	-13.902896	0.002330256	8.5160476	0.0019897853	16.78376	0.0092752296	-0.26978852	
	0.0087143151	-5.3470043	4.0874824e-05	-85.935703	0.0079854546	-0.27518416	0.00074347694	4.6108076	0.00073643566	18.088988	
	0.00061118653	-3.54174	0.00059970368	4.1269192	0.00070978425	14.404404	0.0006351207	3.4751049	0.00070319797	-2.0001713	
	0.00058408129	4.39272	0.1922428	2.2408297	0.0029010793	10.698297	0.0023500588	-8.4368705	0.002217085	13.982073	
	0.0018931496	22.249785	0.0088247697	5.1962366	0.0082910965	0.11902084	0.0079854546	-0.27518416	3.7000988e-05	-75.003653	
	0.00070736931	10.076833	0.00070066999	23.555013	0.0005815037	1.9242851	0.00057057853	9.5929443	0.00067531294	19.870429	
	0.00060427549	8.94113	0.00066904653	3.4658538	0.00055571486	9.8587451	0.23689041	-8.7587687	0.00091475221	-3.6424761	
	0.00074100749	-22.777643	0.00069907892	-0.35870012	0.00059693741	7.9090118	0.00079492585	-1.5511295	0.00074685314	-6.6283452	
	0.00074347694	4.6108076	0.00070736931	10.076833	5.6183408e-05	-97.00285	0.0057906602	-0.54713826	0.0031711202	-0.80549905	
	0.0031115419	6.8631601	0.0049368088	-0.62177952	0.0044174965	-11.551079	0.0048909988	-17.026355	0.0040624988	-10.633464	
	0.23464688	4.719412	0.00090608882	9.8357045	0.00073398959	-9.2994627	0.00069245811	13.119481	0.00059128397	21.387192	
	0.00078739731	11.927051	0.00073977988	6.8498355	0.00073643566	18.088988	0.00070066999	23.555013	0.0057906602	-0.54713826	
	5.5124249e-05	-70.046488	0.0031410873	12.672682	0.0030820732	20.341341	0.0048900535	12.856401	0.0043756595	1.9271019	
	0.0048446774	-3.5481744	0.0040240239	2.8447169	0.19473936	-16.911316	0.00075198597	-11.795024	0.00060915647	-30.930191	
	0.00057468846	-8.5112478	0.00049072148	-0.24353581	0.00065348089	-9.7036771	0.00061396199	-14.780893	0.00061118653	-3.54174	
	0.0005815037	1.9242851	0.0031711202	-0.80549905	0.0031410873	12.672682	3.7968254e-05	-113.30794	0.013313818	-0.15439046	
	0.0040583788	-8.7743272	0.0036314702	-19.703626	0.00402072	-25.178903	0.0033396389	-18.786011	0.19108064	-9.2426571	
	0.00073785781	-4.1263645	0.00059771177	-23.261532	0.00056389133	-0.84258856	0.0004815019	7.4251234	0.00064120342	-2.0350179	
	0.00060242699	-7.1122336	0.00059970368	4.1269192	0.00057057853	9.5929443	0.0031115419	6.8631601	0.0030820732	20.341341	
	0.013313818	-0.15439046	3.6554976e-05	-97.970626	0.0039821308	-1.105668	0.0035632429	-12.034967	0.0039451795	-17.510243	
	0.0032768945	-11.117352	0.22615507	1.0348279	0.00087329772	6.1511205	0.00070742671	-12.984047	0.00066739825	9.4348965	
	0.00056988556	17.702608	0.00075890162	8.2424671	0.00071300745	3.1652514	0.00070978425	14.404404	0.00067531294	19.870429	
	0.0049368088	-0.62177952	0.0048900535	12.856401	0.0040583788	-8.7743272	0.0039821308	-1.105668	5.1206583e-05	-77.415656	
	0.0072177194	-0.36358005	0.0033632373	-0.86236772	0.0027935291	5.5305236	0.20236539	-9.8944714	0.00078143387	-4.7781788	
	0.00063301115	-23.913346	0.00059719336	-1.4944028	0.00050993822	6.7733091	0.00067907132	-2.6868321	0.00063800485	-7.7640479	
	0.0006351207	3.4751049	0.00060427549	8.94113	0.0044174965	-11.551079	0.0043756595	1.9271019	0.0036314702	-19.703626	
	0.0035632429	-12.034967	0.0072177194	-0.36358005	4.1000166e-05	-99.274255	0.003009452	-11.791667	0.0024996724	-5.3987757	
	0.22405652	-15.369748	0.00086519415	-10.253455	0.0007008623	-29.388622	0.00066120527	-6.9696791	0.00056459744	1.2980329	
	0.00075185956	-8.1621084	0.00070639126	-13.239324	0.00070319797	-2.0001713	0.00066904653	3.4658538	0.0048909988	-17.026355	
	0.0048446774	-3.5481744	0.00402072	-25.178903	0.0039451795	-17.510243	0.0033632373	-0.86236772	0.003009452	-11.791667	
	5.0260672e-05	-110.22481	0.0089712627	-0.25888942	0.18610295	-8.9768563	0.00071863648	-3.8605637	0.00058214127	-22.995731	
