! Hittite Microwave Corporation					
! 20 Alpha Road
! Chelmsford, MA 01824
! Tel: 978-250-3343
! Fax: 978-250-3373
! Device: HMC241QS16, DC-3.5 GHz GaAs MMIC SP4T Non-Reflective Switch in 16 lead QSOP package
! Misc: Data was de-embedded to package pins.
!       Port 1 = RFC
!       Port 2 = RF1
!       Port 3 = RF2
!       Port 4 = RF3
!       Port 5 = RF4
!       Vdd    = + 5 V
!  
!  RF1 selected, Vctl= 0/+5 V
!
!  Data reformated to new Touchstone file format - Tue Jan 09 09:58:23 2007
!
# MHz S DB R 50
! 5 Port Network Data
! freq  dbS11  angS11  dbS12  angS12  dbS13  angS13  dbS14  angS14  
!       dbS15  angS15  
!       dbS21  angS21  dbS22  angS22  dbS23  angS23  
!       dbS24  angS24  dbS25  angS25  
!       dbS31  angS31  dbS32  angS32  
!       dbS33  angS33  dbS34  angS34  dbS35  angS35  
!       dbS41  angS41  
!       dbS42  angS42  dbS43  angS43  dbS44  angS44  dbS45  angS45  
!       dbS51  angS51  dbS52  angS52  dbS53  angS53  dbS54  angS54  
!       dbS55  angS55  
!     
              0.03     -0.0137094554        -0.26790364        -51.6380334         120.782983        -90.1684752         80.7223236        -90.9811406        -30.6874454
                      -80.0499433         77.5330102
                       -51.558876         121.522218      -0.0224043039       -0.247523435         -91.350355        -101.336609        -89.4291687         134.482903
                      -83.5902196         148.972992
                      -87.6196562         103.532474        -84.3704318         70.6133653      -0.0176808843       -0.256649385        -88.8796694         108.712931
                      -94.5611126         133.382572
                      -95.3288793        -29.6372629        -93.1882103        -153.387346        -85.7496819         108.773393      -0.0263797112       -0.236658811
                      -89.7706505         176.992875
                       -94.621194         90.9122008        -84.7198622         106.492888        -83.0497293         90.6133983        -86.2294716         162.442532
                    -0.0263888364       -0.236638911

          19.02985       -6.93249781        -57.1759121        -1.81102492          29.567783        -64.4868724         84.8297539        -64.9578524         85.7385011
                      -63.1634872         87.9926291
                      -1.81102391         29.5796599        -6.93257374        -56.7943407        -64.3475476         96.5860635         -65.538393          92.590696
                      -63.8800481         88.1655115
                      -63.9697282         88.7833372        -64.2534083          85.210265       -0.299325154        -12.2734699        -70.5022251         39.2975582
                      -71.3757356         35.1266312
                      -64.7378022         84.1120878        -66.2875143         92.2851987         -73.660334         40.7470642       -0.299360537        -12.2624345
                      -68.3379777         57.1749153
                      -63.3589379         86.3530329        -63.4388272         86.4363296        -71.9966856          38.742166        -69.0030172         54.6483577
                     -0.308320242        -12.2435093

           38.0297       -12.1175522        -66.8663231       -0.798951911         13.6458542        -58.4123723         72.8109373        -59.1239405         79.9604691
                      -57.6779177         81.8152897
                     -0.798951911         13.6518812        -12.0828855         -66.109705        -58.5782263         81.2569513        -59.8654695         76.9342173
                      -58.6641324          74.738361
                      -58.0038877         74.9566267        -58.6659365         80.1037451       -0.823837858        -23.1975491        -69.8003124        -52.4490261
                      -69.6855903        -68.1199644
                       -58.832148         81.9327986        -59.4791911         76.1222088        -70.6587847        -43.2481392       -0.823837858         -23.214298
                      -71.0585584        -29.8376811
                      -57.5545204         82.6612535        -58.7062816         73.2813563        -69.0913103        -73.6108753        -71.2625576        -27.4328875
                     -0.823923527        -23.1318721

          57.02955       -15.5396231         -67.464744       -0.632556835         8.60829514        -54.8301068         67.1663373        -55.1590472         73.4493423
                      -53.7001722         77.1512066
                     -0.623350025         8.61823932        -15.4878029        -66.3280744        -55.1491495         76.0123371        -55.8973247         69.7782821
                      -54.8893233         66.4338314
                      -54.7650754         67.7354263        -55.1499816          76.099011        -1.52485677        -32.7087959        -81.0360265        -118.799762
                      -74.0172941        -126.247589
                      -55.1075097         73.6380454        -55.8937734         69.9838538        -78.6360354        -115.812834        -1.51465445        -32.6952285
                      -74.6644286         43.2437123
                       -53.845405         76.2285609        -54.9326325         65.4669103        -74.0029416        -130.844432        -75.3181081          61.370845
                      -1.52485677        -32.5718006

           76.0294       -17.8734249        -65.5894385       -0.584649806         6.04821122        -52.6012249         59.0064254        -52.7786011         65.1685141
                      -51.4331429         69.3301213
                     -0.584473394         6.03466694        -17.8721338        -64.2669323        -52.8530551         68.6726651        -53.7544456         61.5160014
                      -52.8155438           56.86399
                      -52.6953381         59.1433625         -52.823168         69.7301895         -2.3221726        -40.7921191        -92.1648903         153.668303
                        -86.33624        -148.855081
                       -52.792736         64.3416732        -53.6965174         61.4201156        -80.8590723        -178.145176        -2.32195713        -40.7957773
                      -73.0210946         80.0370674
                      -51.4959028         69.7310124        -52.7161564          57.245033        -79.3135175        -160.611238        -73.5789455         79.3936804
                      -2.33331236        -40.6099735

          95.02925       -19.6134061        -62.7420401       -0.565652634         4.46373231        -51.2899081         50.3029249        -51.3842006          57.660511
                      -50.1318317         63.2291588
                     -0.556609208         4.43704395        -19.6134061        -61.2003379         -51.496509         63.8070496         -52.337076         54.3169358
                      -51.3693426         48.7839594
                      -51.3168165         50.6651956        -51.4609218         63.7118163        -3.16402865        -47.6239819        -81.3560703         134.362011
                      -81.3901383         168.984149
                       -51.412853         57.5777647        -52.4098536         52.8006716        -81.1788157         142.026085        -3.16402865        -47.6338381
                      -70.2059139         100.119743
                      -50.1167837         64.3432823        -51.4397348         49.3363876        -79.3895581          171.89549        -70.9161165         102.128573
                       -3.1765407         -47.374612

          114.0291       -20.9698409        -59.6590349       -0.556211833           3.306444         -50.326206         43.1892332        -50.4429193         51.6462685
                      -49.1311839         58.5649653
                     -0.546956469         3.30371885        -20.9698409        -57.7158693        -50.4880695         58.4767626        -51.4771024         47.3926792
                      -50.3531551         41.9037358
                      -50.2634057         43.6514196        -50.6092962         58.0789423        -4.01476923        -53.3964609         -76.348693         145.898442
                      -81.6821501           156.3731
                      -50.4802394         51.4919661         -51.638651         46.5815766        -76.7566847         135.034505        -4.01476923        -53.3316944
                      -67.6189364         109.049473
                      -49.1307514         58.8579975        -50.4332076         42.3713754        -80.3820678         141.140956        -68.0796846         112.880262
                      -4.01516922        -53.0367096

         133.02895       -22.1165712        -56.3067862       -0.547002578         2.44416391        -49.6951105         37.9500909        -49.8905648         47.0911473
                      -48.4827246         55.5377678
                     -0.537757017          2.4411979        -22.0101664         -53.923844        -49.8422995         54.7081247        -50.8771091         41.9407388
                      -49.7782976         36.1098394
                      -49.7212567         37.2539476        -49.8488499          55.245916        -4.85251292        -58.2336896        -73.4667067         135.473403
                      -78.8704538         161.879085
                       -49.897006         46.9235211        -50.9678692         41.9612547        -74.0791859         137.689238        -4.83785559        -58.1715196
                        -64.56894         119.877871
                      -48.5050341         55.3053749        -49.8327459         36.6550182        -77.9182228         134.636247        -64.6725371         120.111288
                      -4.83785559        -57.8330152

          152.0288       -23.0594371        -52.9321983       -0.546688155          1.7643851        -49.2164953         32.1567614        -49.5108682         43.2130225
                      -48.0429403         52.9930708
                     -0.537442928         1.74889175        -22.9367734        -50.1075026        -49.3654522         52.1140451        -50.4867696         37.2622403
                       -49.501633         31.0482841
                      -49.2562539         32.0136758        -49.3508418         52.2727648        -5.64744397        -62.3852987        -72.4777668         124.258427
                      -74.9473922         145.721603
                       -49.558609         42.9940881        -50.3983741         37.7091053        -71.4897251         138.047516        -5.63081862        -62.3098444
                      -62.0129427         124.278623
                      -48.0796941         52.5835404        -49.4762744         31.4271435        -74.0343231         140.814449        -62.0030933         123.699372
                      -5.63081862        -61.8727807

         171.02865       -23.7123797        -49.7322172       -0.546688155         1.18447982        -48.9785489         27.5983499         -49.173041         39.9827453
                      -47.7464096         51.1894638
                     -0.537442928         1.14362399        -23.5802121        -46.3778047        -49.0599741         50.3926352        -50.2152813         33.6604116
                      -49.2640164         26.8539916
                      -48.9966287          27.904767        -48.9865826         50.1799616        -6.41259983        -66.0019602        -70.4942376         121.185238
                      -73.1278847         136.702618
                      -49.2663488         39.5466467        -50.0064588          33.637767        -70.1029412         128.918703        -6.39444508        -65.8599966
                      -59.9516071          123.24414
                      -47.6793781         50.9703984        -49.2338969         27.0969325        -72.4885656         135.204157        -59.8689701         122.471753
                      -6.39444508        -65.3530331

          190.0285       -24.4015857        -46.6267077       -0.555489579        0.675887876        -48.8441929         24.2254859         -48.933758         37.3569668
                      -47.4137181         50.0820092
                     -0.546234984        0.631034852        -24.1247554        -42.6876129        -48.8182742         49.2966173        -50.0236791         30.4017625
                        -49.01257         23.8122206
                      -48.8954759         24.2785466        -48.7059286         49.3443606        -7.15247696        -69.1557246        -68.6343767         118.393569
                      -71.5755298          133.12927
                      -48.9892867         37.1078255        -49.8167091         30.6363589        -68.5594847          121.59273        -7.11395275        -68.9137217
                      -58.1622038         120.985514
                      -47.3986972         49.7483782        -49.0157922         23.3207484        -71.2419112         129.378211        -58.2258436         121.211681
                      -7.11395275        -68.4132318

         209.02835       -24.8578406        -43.6909398       -0.555943232        0.234770737        -48.6958069         20.9308208        -48.7699097         35.1894766
                      -47.1432719         49.4538468
                     -0.546688155        0.208690249        -24.5591323        -39.1458947        -48.5544315         48.6215481        -49.8725281         27.9035483
                      -48.8397124          20.679501
                      -48.7322336         21.1117171        -48.5528009         48.7412526         -7.8341272         -71.907649        -67.6760291         118.588983
                      -70.4315246         128.149038
                      -48.8089143         35.4925206        -49.7546779         28.4959375        -67.6273673         117.724593        -7.79142182        -71.6067284
                      -56.8500118         118.593145
                      -47.2026761         48.9993838        -48.8308829         19.8979255          -69.74728         130.065409        -56.9916419         120.111319
                      -7.79142182         -71.083079

          228.0282        -25.323696         -41.047787       -0.555943232       -0.157867997        -48.5773591         17.9657292        -48.6521587         33.5410686
                      -47.0072573         49.0398991
                     -0.546688155       -0.163107211        -24.8645371          -35.91178        -48.3736247         48.3234638        -49.7181409         26.1712584
                      -48.7161733          17.281405
                      -48.5728417         18.1387324        -48.3696079         48.1434651        -8.50155082        -74.3745988        -66.6633273         119.510409
                      -69.6297079         127.451496
                      -48.6521661         33.7781467        -49.6965649         26.3428751        -67.3795245         113.385527        -8.45544363        -74.0386052
                      -55.7683577         117.458964
                       -46.976193         49.0333972        -48.7044745         17.3849913        -69.1035795         130.004317        -55.7708941         118.193545
                      -8.43383481        -73.4129193

         247.02805       -25.8159366        -38.6943711       -0.547280575       -0.517944805        -48.4880084         15.4108593        -48.6124296           32.24791
                      -46.8053194         48.7997937
                     -0.546688155       -0.512585227        -25.0263119          -32.97022        -48.2469531         47.9822226        -49.5978837          24.120464
                      -48.6120954         14.9028981
                       -48.491886         15.2084762        -48.1526362          47.532386        -9.10373562         -76.626841        -65.5388036          116.18632
                      -68.4301435         123.186983
                      -48.4796338         31.9332466        -49.6609215         24.1221984        -66.3421164          112.63275        -9.05432785        -76.1952452
                      -54.6893104         117.033784
                      -46.7781332         48.7422373        -48.6069649         15.0058047        -68.7784434         130.341432        -54.6056044         116.999713
                      -9.05275039        -75.5089597

          266.0279       -26.1716404        -36.6792642       -0.546688155       -0.834256009        -48.4609483         13.3143723        -48.5558757         31.1354146
                      -46.5878038         49.1946274
                     -0.546688155        -0.84128961        -25.1818517        -30.3139947        -48.0797539         47.8585241        -49.5489597         22.5886809
                      -48.5620531         12.9041597
                      -48.4313299         12.8201144        -48.0300083         47.6801253        -9.69344942        -78.6273571        -64.7468896         114.208498
                      -67.7043521         123.351314
                      -48.4023623         30.8001721        -49.6587225         22.0695775        -65.4506305         111.543278        -9.64058123        -78.1074316
                      -53.8533757         116.322874
                      -46.6050192         48.5441845         -48.557399         12.1829739        -68.0198632         127.812276        -53.7803262         116.328316
                      -9.64058123        -77.4174316

         285.02775       -26.5307303        -35.0279348       -0.555257912        -1.12731462        -48.4147442         10.7337983        -48.4363801         30.2043126
                      -46.4350877         49.2120362
                     -0.546688155         -1.1371666        -25.1927462        -28.0530819        -47.9447289         48.3788134        -49.5434866         20.9395252
                       -48.490166         10.6085209
                        -48.40602         10.5050028        -47.8634483          48.255149        -10.2698534         -80.456781        -64.2448327         114.217898
                       -67.268582          123.19332
                      -48.4059373         29.7517861        -49.5228465         20.4862359         -64.351543         113.499397        -10.2133696        -79.8742957
                       -53.073763         114.795974
                      -46.4028863         48.5976712        -48.5262384         10.0820937        -66.9112677          121.55222        -53.0724632         115.634882
                      -10.1873418        -79.1342923

          304.0276        -26.729931        -33.8552668       -0.555943232        -1.40318421        -48.3859438         8.15464163        -48.4124539         29.2003074
                      -46.3424353         49.3251987
                     -0.546688155        -1.49607036        -25.1927462        -26.2338817        -47.8259444          48.851087         -49.483499         19.6767759
                      -48.4148682         8.50014782
                       -48.393809         8.26545093        -47.7273484         48.6591733        -10.7994092        -82.1613112        -63.2620563         115.678587
                      -66.7045923         119.622184
                      -48.4742574          28.897633         -49.419309         19.0650826        -63.2073349         112.721703        -10.7393868         -81.557734
                       -52.326879         114.690893
                      -46.2405696         48.6131305         -48.511212         8.01993463        -65.7687538          115.76597        -52.3304703         114.144465
                      -10.7095304        -80.7566346

         323.02745       -27.0978336        -32.8700972       -0.555943232        -1.64849672        -48.4277552         6.60993567         -48.302908         28.4962243
                      -46.1963311         49.4522442
