! Hittite Microwave Corporation					
! 20 Alpha Road
! Chelmsford, MA 01824
! Tel: 978-250-3343
! Fax: 978-250-3373
! Device: HMC241QS16, DC-3.5 GHz GaAs MMIC SP4T Non-Reflective Switch in 16 lead QSOP package
! Misc: Data was de-embedded to package pins.
!       Port 1 = RFC
!       Port 2 = RF1
!       Port 3 = RF2
!       Port 4 = RF3
!       Port 5 = RF4
!       Vdd    = + 5 V
!  
!  RF2 selected, Vctl= 0/+5 V
!
!  Data reformated to new Touchstone file format - Tue Jan 09 10:07:35 2007
!
# MHz S DB R 50
! 5 Port Network Data
! freq  dbS11  angS11  dbS12  angS12  dbS13  angS13  dbS14  angS14  
!       dbS15  angS15  
!       dbS21  angS21  dbS22  angS22  dbS23  angS23  
!       dbS24  angS24  dbS25  angS25  
!       dbS31  angS31  dbS32  angS32  
!       dbS33  angS33  dbS34  angS34  dbS35  angS35  
!       dbS41  angS41  
!       dbS42  angS42  dbS43  angS43  dbS44  angS44  dbS45  angS45  
!       dbS51  angS51  dbS52  angS52  dbS53  angS53  dbS54  angS54  
!       dbS55  angS55  
!     
              0.03     -0.0136456722        -0.24771668        -84.9497191         109.453109        -51.5296943         120.662302        -93.1778813         166.142411
                       -89.848376         87.0928371
                      -87.4798194         164.152985      -0.0176808843       -0.226689186        -94.0584813         81.6631464        -85.2599136         107.402737
                      -81.6500163         107.472786
                      -51.5198832         121.472456        -85.7605107         105.593216      -0.0136821197        -0.24730453        -107.729065         -172.40747
                       -89.938279         111.353075
                       -93.070185         167.462891        -87.7089036         114.623318        -86.3592809         78.0129214      -0.0176808843       -0.256658811
                       -87.970282         101.443234
                      -95.6286175         -105.96748        -90.2203945         87.1229063        -89.5901853          36.853425        -78.9934682         121.713338
                    -0.0263888364       -0.266589683

          19.02985       -6.79899731        -58.8780996        -62.7141711         87.7070122        -1.83236452         29.7495866        -64.2344037         90.5330573
                      -63.0198036          88.838097
                       -63.152611         90.0391421       -0.299325154        -12.2813204        -63.4253578         88.4521475        -71.6976223         48.2529548
                      -71.3229071         36.9698598
                       -1.8323644         29.7567626        -63.4933183         85.8480978        -6.87503188        -56.5861632        -65.6457351         93.0967586
                      -63.2771426         83.8746851
                       -64.733025         92.3102508        -72.4567828         41.7761321         -64.759886         85.5382352       -0.299325154        -12.2824345
                      -67.7922218         59.8654524
                      -62.9595274          96.827791        -70.8186769         43.3341972        -64.1148651         81.9068006        -68.3083011         56.4849973
                     -0.308320242        -12.2266943

           38.0297       -12.0461735        -70.8477538        -56.9131499         73.7901918       -0.808565392         13.7465988        -58.6510841         72.7611583
                      -58.1510702         75.2708685
                      -57.0734587         75.7714925       -0.823837858        -23.2253697        -58.0287346         73.4629205        -67.6244243        -31.4100352
                      -64.0589147        -60.0592494
                     -0.808565392         13.7515898        -57.9199901         74.4494696        -12.0130326        -65.8987229        -59.3877525         73.9122684
                      -59.3438521         66.9452557
                      -58.5872857         77.7441568        -68.1978407        -29.9424358        -58.8473203         76.6844112       -0.814378617        -23.1807824
                      -63.5075971        -22.8250025
                      -57.8835737         76.6044268        -64.3231927        -59.6186731        -59.4286546         67.9836407        -63.5582292        -27.9371743
                     -0.823923527        -23.1654146

          57.02955       -15.6412647         -73.456585        -53.8942738         70.3390666       -0.632687194         8.64716028        -55.0620862         71.8664236
                      -53.9696707         75.7238509
                      -53.8493043          70.252314        -1.52485677        -32.7466564         -54.474913         71.0778289        -78.0526493        -113.053802
                      -75.7558654        -178.056568
                     -0.632687194         8.66497888        -54.2855484         71.9489359        -15.4355733        -66.2107487        -55.8662946          71.174336
                      -55.2102638         65.1778565
                      -54.9890142         73.1541275        -76.9351573        -123.345369        -55.8770694         71.0456582        -1.52471231        -32.7134889
                      -73.4901559         54.0584223
                      -53.9118943           75.99807        -76.4826892         165.020379        -55.2158981          64.025211         -74.030932         67.0894609
                      -1.52485677        -32.5860797

           76.0294        -18.285878        -73.1623801        -51.6647909         62.2830202       -0.584649806         6.06953402        -52.7107157         64.4012919
                      -51.6169132         69.7890309
                       -51.749366         61.8697737        -2.33331236        -40.8477773        -52.2784024         64.5575884        -83.5390975        -119.613204
                      -85.4390246         92.9975383
                     -0.593768843         6.06595176        -52.3247166         64.3680768        -17.8044123        -64.0165337        -53.5286683         62.3275337
                      -52.9554964         56.6466853
                      -52.6765805         63.9832871        -81.2959742        -139.947068        -53.3924459         61.8916605         -2.3221726        -40.8020241
                      -74.1342034         88.1180131
                      -51.6845226         69.2907089        -81.1869546         122.905348        -52.9973242         55.8541089        -74.3160701         86.6986853
                      -2.33331236        -40.6200495

          95.02925       -20.3887274        -71.4586877        -50.3376955         54.7219014       -0.565652634         4.45447545         -51.354565         57.1319974
                      -50.2314097         64.2765665
                      -50.3590115         55.3267545         -3.1765407        -47.7053586        -50.9030919         58.6129225        -80.7733459         156.057637
                      -79.1596359         82.1772603
                     -0.565874868         4.43681106        -51.0118794         57.9354052        -19.5307232        -60.8721838        -52.2694461         55.4292407
                      -51.6399364         48.7860211
                      -51.3070031         55.5488292        -83.0918209         140.260515        -52.2041207         55.1863743        -3.16402865        -47.6261737
                      -70.3549532          105.72229
                      -50.2300766         63.9002104        -78.2160608         88.1368334        -51.6830115         48.2723569        -70.2080714         107.604216
                       -3.1765407        -47.4060846

          114.0291         -22.10337        -68.9963121        -49.4486521         48.7625861       -0.556211833         3.25857524        -50.4169445          50.077508
                      -49.2895863         58.5870018
                      -49.4266762          49.579988        -4.04199113         -53.471664        -50.0570148         53.8160261        -78.6538337         131.495926
                        -79.78784          89.313134
                     -0.556211833           3.279415        -50.0545329         53.2658782        -20.8732604        -57.1829316        -51.3343174         49.2108239
                      -50.6772001         41.3310525
                      -50.3599144         50.2492529        -79.0961496         139.446976        -51.3950551         49.1398348        -4.01476923        -53.3615631
                      -67.2700052         115.580945
                      -49.2258498         58.4247074        -80.0815176         93.9076717        -50.7827577         41.2250729        -67.7348544         111.295802
                      -4.01516922        -53.0764775

         133.02895       -23.5556068        -65.7641832        -48.8874233         43.7261425       -0.547002578         2.39033386        -49.7907457         44.8419889
                      -48.7044443         54.6999317
                      -48.8633738         44.7191602        -4.86822919        -58.3473299        -49.4941894         49.6555028        -77.4192042         129.155702
                      -76.6866139         104.769867
                     -0.547002578          2.3852856        -49.4391166         49.1520072         -22.006446        -53.4012662        -50.8139855         44.4868577
                      -50.1129953          34.655261
                      -49.8408712         45.3403696        -76.4798561         137.264974        -50.7985656         44.2856163        -4.83785559        -58.1580832
                        -64.17583         122.543921
                      -48.7711797         54.6617848         -75.158331         109.797823        -50.1730576         35.3157143        -64.1883694          121.42977
                      -4.83785559        -57.8720492

          152.0288       -24.9759988        -61.7387393        -48.4307937         40.0808894       -0.546688155         1.68443738        -49.3856684         41.0352031
                      -48.2409199         52.4086125
                      -48.4873719         40.6704921         -5.6641012        -62.5070259        -49.1060512         46.1158105        -75.6355872         124.987651
                      -73.6682096         113.906226
                     -0.546688155         1.66690506        -49.0162761          46.103934        -22.8205006         -49.455764        -50.4177761         40.1080939
                      -49.7186451         29.6949447
                      -49.5515592         41.0107945        -75.9674528         132.787421        -50.3922122         39.9261196        -5.63081862        -62.2660136
                      -61.8655607         121.979426
                      -48.2932821         52.1103303        -72.1672634          115.78941        -49.6698481         29.8716397        -61.6904408         124.989945
                      -5.63081862        -61.9300402

         171.02865       -26.1416441        -57.1594865        -48.1442573         37.2460106       -0.546688155          1.1216437        -49.1652722         37.7169699
                      -47.8423448         50.7378749
                      -48.1786742         37.1479032        -6.44822049        -66.1019723        -48.7938143          43.219959        -73.9769958         127.343867
                      -71.6500732         111.009402
                     -0.546688155         1.07974386        -48.7489012         43.3646661        -23.4500256        -45.5678458         -50.089404         36.5288835
                       -49.424053         25.3396487
                      -49.1868571         37.7331095        -74.9662689         133.325039        -50.0512466         36.5763659        -6.39444508        -65.8188206
                      -60.0973425         120.149732
                      -47.8773561         50.3294516        -72.0424231         110.690853        -49.3095098         25.1476671        -59.9319305         121.132552
                      -6.39444508        -65.4110331

          190.0285        -27.082724        -52.1267808        -48.0336086         34.5257478       -0.555489579        0.610083844        -48.9730043         35.1326152
                      -47.5667548         49.4039632
                       -47.997799         34.2493416        -7.17326099        -69.2452145        -48.5165517         41.3545572        -72.0740841         128.375821
                      -69.8068648         108.553805
                     -0.546688155        0.555671747        -48.6052449         41.4342316        -23.9862127         -41.885829        -49.8182361         33.5722321
                      -49.2421817         21.3848609
                      -48.9320429         34.6884742        -73.5546851         132.900565        -49.7781132          34.086716        -7.11395275        -68.8964969
                      -58.4886977          120.26481
                      -47.5782592         49.2658046        -71.1382142         106.980526        -49.2030822         21.5876964        -58.3921709         118.407906
                      -7.11395275        -68.4198774

         209.02835       -27.9120015        -46.7839214        -47.9031621         32.1916608       -0.555943232        0.127147811        -48.7653348          32.951395
                       -47.365526         48.4800542
                      -47.9235393         31.9984744        -7.87588152        -72.0061087        -48.3428258         40.3067267        -71.4416683         120.039764
                      -68.7767834         107.550513
                     -0.546688155        0.086337445        -48.4711767         40.4707025        -24.4135441        -38.3675981        -49.6590749         30.9656255
                      -49.0406436         18.0144139
                      -48.8104695         32.4597456         -72.004893         125.053782        -49.6046409         31.7628228        -7.79142182        -71.6143778
                       -57.038918         119.260914
                      -47.3067981         48.6767399        -69.2383959         104.729367        -49.0480931         18.6820765         -56.993796         117.685765
                      -7.79142182        -71.0568078

          228.0282        -28.594506        -41.3382579        -47.7512081         30.3101131       -0.555943232       -0.274454925        -48.6186102         31.0348275
                      -47.1328481         48.1684638
                      -47.8206941         30.1324639        -8.52606429        -74.4961826         -48.253061         39.2159702        -71.1390293         115.993708
                      -68.4856973         105.571912
                     -0.546688155       -0.314454925        -48.3072879         39.5082399        -24.7137837        -35.0802026          -49.59142         29.2159075
                      -48.8581025         15.0758999
                      -48.6945967         30.8532951        -70.4257191         113.528727         -49.512094         29.6392787        -8.43383481        -74.0099656
                      -55.8484711         117.842329
                      -47.0847778         48.2630172        -68.0698108         102.327218        -48.7999441           15.75949        -55.6905871         117.782798
                      -8.43383481        -73.4197359

         247.02805       -29.3214777         -35.758661        -47.6770321         28.7286744       -0.555943232       -0.629329058        -48.5468823         29.6275704
                      -46.9166785         48.1978619
                      -47.7072398         28.3925615         -9.1518305        -76.7601365        -48.1893896         38.2889829        -69.7454092         117.833787
                      -67.8913211          106.12021
                     -0.546688155       -0.669329058        -48.1654323         38.5010028        -24.8727494          -32.04724        -49.4732403         28.0330328
                      -48.7935852         12.5949281
                      -48.5735817         29.2474922         -69.429356         112.476464         -49.441551         27.7207049        -9.07583301        -76.1399103
                      -54.8899183         117.376065
                      -46.9335635         47.9198384        -67.6307537         104.413451        -48.7605809         12.5563046         -54.653377         116.837259
                      -9.05275039         -75.532935

          266.0279       -29.6115713        -30.2032483        -47.6316103         27.3963248       -0.555943232       -0.956427667        -48.5404061         28.2523974
                      -46.7891747         48.1339701
                      -47.6646993         26.8594066        -9.74664137        -78.7613571        -48.1936959         37.9479156        -69.1131998         109.976093
                      -66.8471463         105.980737
                     -0.555304051       -0.988048924        -48.0741318         37.7582528        -25.0255394        -29.3161028        -49.3793293         27.0252356
                       -48.730055          10.350693
                      -48.3983511         28.5342137        -68.8175949         113.037581        -49.3488718         26.2387817         -9.6669751        -78.1128067
                      -53.9990942         116.545641
                      -46.8136197         47.8793806        -67.0419952         103.777467        -48.7944423         9.53374231        -53.8552926         115.962986
                      -9.64058123        -77.4135715

         285.02775       -29.8769344        -25.1260164        -47.5918779         25.9512048       -0.555943232        -1.27439032        -48.4887992         27.3421301
                       -46.650102         48.3077158
                      -47.6194453          25.786342        -10.3267069        -80.6333764        -48.1695549         37.4695617        -68.1633204         108.897782
                      -65.8585729         106.340173
                     -0.555943232        -1.29983439        -48.0639866         37.5524339        -25.1810658        -27.0435999        -49.3564284         25.8522217
                      -48.6556328         8.22920047
                      -48.3670727         27.2342856        -68.2757249         110.660466        -49.3612499         25.3610957        -10.2154533        -79.8805917
                      -53.1014807         114.883114
                       -46.598438         47.9511531        -65.7415044         103.602325        -48.7155311         7.47857897          -53.01627         115.876146
                      -10.1873418        -79.1106985

          304.0276       -30.1506473        -20.5136756        -47.5736329         25.2268796       -0.555943232        -1.55402612        -48.4275233         26.5568114
                       -46.510139          48.646177
                       -47.621815          24.912372        -10.8598492        -82.3468369        -48.0839948          37.691789        -67.5264222         110.160313
                      -64.7716328         106.857186
                     -0.555943232        -1.62783686        -48.0737878          37.474612        -25.1927462        -25.1428375        -49.3433721         24.3503306
                      -48.5745987         5.47582146
                      -48.3865392         25.7304611        -67.7256067          109.48526        -49.3416307         24.0768897        -10.7393868        -81.5508406
                      -52.3150792         114.411483
                      -46.4668134         48.3198572        -65.0787684         102.990694        -48.5470472         5.66406734        -52.3554523         114.608605
                      -10.7095304        -80.7288717

         323.02745       -30.4332798        -16.3542197        -47.7065219         24.4760307       -0.555943232        -1.83796746        -48.4352312         25.4874328
                      -46.3457848         48.8636058
