! Hittite Microwave Corporation					
! 20 Alpha Road
! Chelmsford, MA 01824
! Tel: 978-250-3343
! Fax: 978-250-3373
! Device: HMC241QS16, DC-3.5 GHz GaAs MMIC SP4T Non-Reflective Switch in 16 lead QSOP package
! Misc: Data was de-embedded to package pins.
!       Port 1 = RFC
!       Port 2 = RF1
!       Port 3 = RF2
!       Port 4 = RF3
!       Port 5 = RF4
!       Vdd    = + 5 V
!  
!  RF4 selected, Vctl= 0/+5 V
!
!  Data reformated to new Touchstone file format - Tue Jan 09 10:11:19 2007
!
# MHz S DB R 50
! 5 Port Network Data
! freq  dbS11  angS11  dbS12  angS12  dbS13  angS13  dbS14  angS14  
!       dbS15  angS15  
!       dbS21  angS21  dbS22  angS22  dbS23  angS23  
!       dbS24  angS24  dbS25  angS25  
!       dbS31  angS31  dbS32  angS32  
!       dbS33  angS33  dbS34  angS34  dbS35  angS35  
!       dbS41  angS41  
!       dbS42  angS42  dbS43  angS43  dbS44  angS44  dbS45  angS45  
!       dbS51  angS51  dbS52  angS52  dbS53  angS53  dbS54  angS54  
!       dbS55  angS55  
!     
              0.03     -0.0137094554       -0.237730034         -95.550861         34.7523009         -89.089051         176.413095        -88.7501806         132.712974
                      -51.3064858         120.712963
                      -99.3483675         179.512337      -0.0263888364       -0.236689186        -81.7602216         140.043188        -86.6298441         111.212821
                      -97.5620101         69.1833747
                       -90.088957         37.0827785        -98.4359379         175.562755      -0.0176808843       -0.246638911        -90.9782262         120.432816
                      -87.6598641         150.282798
                      -88.2093056          19.792266        -88.7199168         126.872801        -82.3298148         95.8529754      -0.0176808843       -0.216689186
                      -99.6195276         64.5427848
                      -51.4383947         119.672988        -90.0710061         152.503041        -92.8179969        -133.727186         -90.489452         121.012799
                    -0.0224134249       -0.217543336

          19.02985       -6.93249781        -57.9308069        -63.4499363          85.387722         -65.231158         96.7042719        -63.6047449         88.9889414
                      -1.81102063         29.4788577
                      -63.1740865         95.2831512       -0.308320242        -12.2913204         -67.733751         51.8727401        -70.0190126         39.7934845
                      -64.3998638         83.7892295
                      -65.1246126         88.1719274        -68.2834948         49.9309109       -0.299325154        -12.2535093         -70.226359         46.1587757
                        -65.57234         88.3409981
                      -63.3744871         84.6444904        -71.1176923         34.5342262        -72.0234423         48.3299675       -0.299325154        -12.2713204
                      -64.4619833         85.2381438
                      -1.82168629         29.4120087        -63.9457185         87.9423565        -64.9505262         92.1475051        -64.5758566         89.4717541
                      -6.95181402        -56.7832659

           38.0297       -12.1175522        -68.3130886        -57.5874789         74.3854021        -58.5821235         74.1017368        -58.0502049         76.7878745
                     -0.798951911         13.6886612
                      -57.2724739         75.8013273       -0.823923527        -23.2353697        -64.4873847        -48.6562026        -67.8487779        -88.5250608
                      -58.9976929         72.2093402
                      -58.8867245         75.6105306        -64.6069098        -53.8441609       -0.814378617        -23.1953877        -64.3078476        -69.6097614
                      -60.3456733         70.9214582
                      -57.7317776         80.2520805        -67.3399806        -86.1201829        -64.6263515        -68.6914629       -0.823837858        -23.2064505
                      -58.7113114          75.321503
                     -0.808479874         13.6960243        -59.2128414         70.7651707        -60.5371676         71.5417147        -59.0369777         74.8204891
                      -12.0831987        -66.0372611

          57.02955       -15.5910247        -69.5912134        -53.9988553         73.5217864        -55.1884358         72.8962051        -54.4524658         69.9995238
                     -0.632556835         8.75089975
                      -53.9787347         74.0956844        -1.52485677        -32.7398936        -73.4424214         58.0422372         -77.974868        -99.5592515
                      -55.0458558         67.6815833
                      -55.2159446         72.1601921        -72.1164038         59.4514809        -1.52471231        -32.6831308        -75.2040872        -169.572185
                      -56.2447955         69.7671353
                      -54.3639914         70.3909531           -78.3524        -73.4319641         -76.085883        -158.002097        -1.52485677        -32.7099076
                       -55.014259         74.0891586
                     -0.632687194         8.76974626        -54.9658339         67.0099737        -56.1195503         69.9627727        -55.0752989         73.8459306
                      -15.4370067         -66.376358

           76.0294       -17.9416888        -68.4592353        -51.8177186         66.8675886         -52.962853         64.5924509        -52.3166779          60.871844
                     -0.584649806         6.25401496
                      -51.8607513         66.2504315        -2.33331236        -40.8613785        -74.9121581         107.214702        -84.7646208        -128.107138
                       -52.987216         59.7022353
                      -53.1161621         63.8568053         -73.726124         107.935835         -2.3221726        -40.8014355        -89.5108943        -85.7269857
                       -53.897684          62.640665
                      -52.2070145          61.807451        -80.9775834        -113.876392        -83.2349675        -136.942793         -2.3221726        -40.7764419
                      -52.7988042         67.5394619
                     -0.593768843         6.24260359        -52.8278129         59.5209691        -53.9084735         62.4294312        -52.7699638         67.1984367
                      -17.7384858        -64.4817423

          95.02925       -19.7791412        -66.1316224        -50.4615713         59.9907441        -51.5466964         56.9478192        -50.9366812         52.6545313
                     -0.565652634         4.70586931
                      -50.5106748         60.1462067         -3.1765407        -47.6881257        -69.5175735         118.025137        -83.9513624         179.985396
                      -51.6471311         52.3351789
                       -51.530638          56.839429        -69.7192016         115.715211        -3.17624055        -47.6427662        -81.0664717         177.691663
                      -52.5351321         54.7347951
                      -50.9763038         53.7020621        -83.8870239         169.047743        -79.2922978         161.485861        -3.16402865        -47.6031018
                      -51.3783779         60.9595045
                     -0.565874868         4.71534192        -51.5535556         51.8850109        -52.6619502         55.1970625        -51.4884219         61.0176519
                       -19.369618        -61.7658038

          114.0291       -21.1662847        -63.2989284        -49.5500747         54.3194644        -50.5431105         50.5515809        -50.0150447         46.0931058
                     -0.556211833         3.59702271
                      -49.5437658         54.9838454        -4.04199113         -53.448809        -66.3846496         124.545476        -80.2200878         150.816664
                      -50.6889135         45.9416969
                      -50.5624972         50.6867644        -66.7355963         126.261983        -4.01516922        -53.3814761        -77.3963518         120.770314
                      -51.6226123         48.3655657
                      -50.1237057         46.6556669        -79.5397746         135.856533        -77.0480373         135.611443        -4.01476923        -53.3482731
                      -50.4315328          56.165475
                     -0.556211833         3.63032656        -50.5746527         45.2487454        -51.5300232         48.7513502        -50.4569236         56.3208645
                      -20.6832625         -58.815177

         133.02895       -22.3411011        -60.2735353        -48.9821815         50.0948624        -50.0284145         45.3282608        -49.4378913         40.6710929
                     -0.547002578         2.81634269
                      -48.9654289         50.7815905        -4.86822919        -58.3455822        -63.1933853          128.80956        -76.8211414         139.995429
                      -50.1510904         39.6315002
                      -50.0690961         45.8788828        -63.0001817         128.451854        -4.85251292        -58.2408738        -73.8976161         127.313474
                      -51.0987333         42.5646212
                      -49.5238898         41.0761236         -75.853619         132.484724        -73.6606827         130.712771        -4.83785559        -58.1856556
                      -49.8980597         52.2924076
                     -0.547002578         2.81170232        -50.1419903         39.6608374        -51.0176445         42.9872276        -49.8699969         52.1412845
                      -21.6877927         -55.754657

          152.0288       -23.3100869        -57.2513627        -48.5787513         46.6950814         -49.684935          41.589436        -49.0849001         35.4992727
                     -0.555582344         2.19512463
                      -48.5736341         47.3955357         -5.6641012        -62.5050649        -60.6360838         127.051129        -76.4598482         132.612169
                      -49.7175405         34.7617489
                      -49.6763053         41.5768591         -60.455809         125.486923        -5.64744397        -62.3913767        -71.8842723         126.915788
                      -50.7129239          37.897266
                      -49.0619769         36.0962832        -73.9709085         137.420363        -72.3862065         119.029839        -5.63081862        -62.2805982
                      -49.5061828         49.6479158
                     -0.546688155         2.16029384        -49.7506139         35.4423771         -50.613053         37.7196634        -49.4429564         49.4763056
                      -22.5788457        -52.6487144

         171.02865       -24.1152541         -54.087205        -48.2187843         44.3345794        -49.3152552         38.2290382        -48.7952582          31.970143
                     -0.547095232         1.68535535
                      -48.2507309          44.214381        -6.44822049        -66.1181362        -58.7121786         124.340238        -75.3227915         128.180857
                      -49.3798199         31.6992838
                      -49.2929958          37.933008        -58.6771521         124.887915        -6.41259983        -65.9917083        -70.9178964         121.519141
                      -50.3852878         34.2113282
                       -48.798673         32.4164481        -73.0967041         132.146158        -71.3393259         120.113577        -6.37712466        -65.8261286
                      -49.1561261         47.7477764
                     -0.546688155         1.65126734        -49.4278686         31.7944041        -50.2638125         34.2024389        -49.1414827         47.5470966
                      -23.3161603        -49.5968802

          190.0285        -24.845255        -51.0464252        -47.9375934         42.6542775        -49.0474422         34.7258434        -48.5696763         29.1646384
                     -0.546688155         1.24740945
                       -47.972215         41.9304277        -7.17326099        -69.2755286        -57.1416859         123.182401        -72.9752728         123.694296
                      -49.1565981         28.5542063
                      -49.1121406         35.3422233        -57.0458864         123.121851        -7.15247696        -69.1494796        -69.0693894         119.525949
                      -50.1823804         31.0124801
                       -48.645564         29.2850506        -72.9798442         123.891267        -69.3772869         119.336701        -7.11298756         -68.911105
                      -48.8891422         46.0520902
                     -0.546688155          1.2077034        -49.1779079         28.0106591        -50.1631546         31.3985894        -48.9832995         46.0669201
                       -23.849845        -46.5062668

         209.02835       -25.3260944        -48.3854348           -47.7299         40.9572737        -48.9168949         32.4841514        -48.3996293         26.1162871
                     -0.546688155         0.85423159
                      -47.7798894         40.5987455        -7.87588152         -72.027649        -55.8173467         121.694901        -71.2591766         116.678057
                      -49.0127716         25.6102639
                        -48.99662         33.1415295          -55.65683         120.734225         -7.8341272        -71.9234064        -67.6193353         115.706018
                      -49.9943747          28.258351
                      -48.5345341         26.2344767        -72.6664843         117.640439        -67.8089921         114.279329        -7.79142182        -71.6038364
                      -48.6956141         44.7799087
                     -0.546688155        0.804771834        -48.9929812          25.380545        -50.0274525          28.705028        -48.8429615         44.6034699
                       -24.270356         -43.485802

          228.0282       -25.8184983         -45.938457         -47.580903         39.6144246        -48.8217539         31.1210705        -48.3285694         23.5683548
                     -0.546688155        0.527178319
                      -47.6545874         39.6143579        -8.52606429        -74.4936578        -54.6509725         119.902281        -70.4328861         113.260013
                      -48.9707198         23.4702165
                      -48.8083803         31.2605261        -54.5677315         119.893494        -8.50155082         -74.379366        -67.1605666         114.521899
                      -49.8359328         25.9165528
                      -48.4116148         23.9235433        -71.7253059         115.216121        -66.4290155         117.277995        -8.45544363        -73.9904377
                      -48.5400013         44.0721269
                     -0.555396814        0.484706237        -48.9190702          23.674252        -49.8151988         26.4238942         -48.645398         43.5453706
                      -24.5656023        -40.5714868

         247.02805       -26.3404782        -43.6338094         -47.485279         38.8555587        -48.7402978         29.4893101        -48.3331762          21.734276
                     -0.546688155         0.23657224
                      -47.5015824          38.891534         -9.1518305        -76.7346095        -53.6180868         118.664363        -69.8768083         115.320978
                      -48.9412081         21.1231002
                      -48.6880916         29.7544869        -53.6369669         118.366443        -9.12695431        -76.5887229        -66.2167047         114.523709
                      -49.7814702         24.1466896
                      -48.2621598         21.6793511        -70.4406652         117.300412        -65.3344285         117.986609        -9.07741466        -76.1442452
                      -48.4316766          43.632346
                     -0.555943232        0.205803734        -48.8405096         21.4532477        -49.7274489         24.1279375        -48.4381403         43.8106493
                      -24.8630068        -37.6379245

          266.0279        -26.718814        -41.5570271        -47.3899055         38.1107714        -48.6778401         28.3468288        -48.2392884         20.2290596
                     -0.546688155      -0.0491888086
                      -47.3737222         38.1459095        -9.74664137        -78.7455287        -52.7402693         117.366496        -68.8161365         117.128405
                      -48.8090576          18.884693
                      -48.6172098         27.7169935        -52.7243155         117.237208        -9.72000467        -78.5993907        -64.8636357         110.319078
                      -49.7039222         22.5407908
                      -48.2253746          19.251327        -69.2481176         111.868033        -65.1891582         116.296841        -9.64240059        -78.1243925
                      -48.3484727         43.3703952
                     -0.555943232      -0.0708100655        -48.7863727         19.4265067         -49.692667         22.0268219        -48.3210297         44.0489854
                      -25.1709708          -34.87114

         285.02775       -27.1017748        -39.8250038        -47.2860005         37.4691453        -48.6148594         26.9152789        -48.1971196         18.2823569
                     -0.555257912       -0.297719154
                      -47.2958328         37.6384137        -10.3267069         -80.575781        -51.9650518         115.627741        -68.0693988         117.474163
                      -48.7288794         16.8493174
                      -48.5757449         25.9275185        -51.8686404         116.262791        -10.2719507        -80.4510787        -63.9931447         110.324614
                      -49.7033412           20.50487
                      -48.1964589         17.6467179        -68.7688475         109.765923        -64.6520649         112.942856        -10.2133696        -79.9166674
                      -48.2404554         43.5372717
                     -0.547372799       -0.317793166         -48.791594         17.4183553        -49.7322963         20.0707665        -48.2445293         43.9538814
                      -25.3402282        -32.3122475

          304.0276       -27.3146791        -38.6158752        -47.2340036         37.1889978        -48.5908024         26.1991682        -48.1943119         16.7038324
                     -0.555943232       -0.496507625
                      -47.2037284         37.5835809        -10.8598492        -82.2729435        -51.2051914         114.482947        -67.8580301         115.088302
                      -48.7451273         15.3765054
                       -48.630957         25.6707498        -51.1629382         114.529593        -10.7994092        -82.2282249        -63.4289218         114.267752
                       -49.657407         19.8011885
                      -48.2066495         16.2002958        -67.8602468         105.954539        -63.6136183          110.91492        -10.7393868        -81.5823939
                      -48.1890924         43.6975112
                     -0.546688155        -0.57544889        -48.7265139         15.8829593        -49.5727811         19.5916925        -48.1180378         43.7267331
                      -25.3521248        -30.0425575

         323.02745       -27.5176536        -37.5539036        -47.1646203         37.4401272        -48.5699141         25.6276449        -48.2168215         15.0357584
                     -0.555943232       -0.709849552
