! Hittite Microwave Corporation					
! 20 Alpha Road
! Chelmsford, MA 01824
! Tel: 978-250-3343
! Fax: 978-250-3373
! Device: HMC241QS16, DC-3.5 GHz GaAs MMIC SP4T Non-Reflective Switch in 16 lead QSOP package
! Misc: Data was de-embedded to package pins.
!       Port 1 = RFC
!       Port 2 = RF1
!       Port 3 = RF2
!       Port 4 = RF3
!       Port 5 = RF4
!       Vdd    = + 5 V
!  
!  RF3 selected, Vctl= 0/+5 V
!
!  Data reformated to new Touchstone file format - Tue Jan 09 10:09:53 2007
!
# MHz S DB R 50
! 5 Port Network Data
! freq  dbS11  angS11  dbS12  angS12  dbS13  angS13  dbS14  angS14  
!       dbS15  angS15  
!       dbS21  angS21  dbS22  angS22  dbS23  angS23  
!       dbS24  angS24  dbS25  angS25  
!       dbS31  angS31  dbS32  angS32  
!       dbS33  angS33  dbS34  angS34  dbS35  angS35  
!       dbS41  angS41  
!       dbS42  angS42  dbS43  angS43  dbS44  angS44  dbS45  angS45  
!       dbS51  angS51  dbS52  angS52  dbS53  angS53  dbS54  angS54  
!       dbS55  angS55  
!     
              0.03     -0.0136638959        -0.26733857         -82.680342         137.922859        -97.1901403         120.882256        -51.5198832         120.072868
                      -86.3394155         120.112129
                      -92.3410263         61.9927719      -0.0263797112       -0.226689186        -84.5399916         114.753333        -85.0196097         93.6427544
                      -92.7099724        -54.0074936
                      -82.2697956         116.622352        -80.0895765         148.242617      -0.0176808843       -0.276609584        -87.1999946         114.742744
                      -83.1504135         123.542925
                      -51.4094578         119.412466        -95.3298424         80.9031529        -93.3381286         147.212568      -0.0136821197       -0.207315004
                      -86.2389145         124.843067
                      -87.3001942         48.7730799        -84.1703712         117.872597        -88.0694142        -132.957228        -93.0675994         31.1527609
                    -0.0263797112       -0.186669285

          19.02985        -6.8369314        -58.5385203         -62.763185         95.0396159        -64.0013481         90.7252797         -1.8323644         29.6984574
                      -62.1824832         86.9850274
                       -63.704218         89.3258895       -0.299360537        -12.2813204        -68.5135792         50.4702585        -65.2314264         83.9094979
                      -71.4492072         39.5728621
                      -64.2609586         88.4574007        -67.8127542         58.5796435       -0.299325154        -12.2556195        -65.5197675         87.9001703
                      -73.1199451         32.2720034
                      -1.83236296         29.6062102        -64.3466822         88.6483654        -64.2527586         86.9523469        -6.87503188        -56.5561239
                      -63.1759542         87.8572896
                      -62.3149625         87.7986424        -71.9703421         47.1905682        -72.6478841          28.325081        -63.9625799         83.1752358
                     -0.299360537        -12.2223952

           38.0297       -12.0467972        -70.0389879        -57.9028514         76.3902723        -58.4388536         73.9071523       -0.808565392         13.7540875
                      -57.6400712         80.8116929
                      -57.6672398          77.520834       -0.823837858         -23.234289        -64.4430464        -25.7285753        -59.3618804          76.018082
                      -66.2049375        -83.9872254
                      -58.2480146         74.3120308         -63.903342        -27.3256246       -0.814378617        -23.1954056        -60.4173686         73.3527176
                      -65.8978912        -88.2225913
                     -0.808565392         13.7552622        -59.2306264         76.0562568        -60.2833237         72.9287792        -12.0130326        -65.8598036
                      -58.1449147         69.6475047
                      -57.2809392          81.578698        -66.3261148        -82.8048558        -66.1072594        -87.0201596        -57.9629037         70.4044593
                     -0.823837858        -23.1475402

          57.02955       -15.6412647        -72.2679014        -54.2898599         72.3005087        -55.2414146         71.7848939       -0.641903912         8.70742073
                      -53.3903102         73.1969847
                      -54.2831633         73.4037366        -1.52485677        -32.7655169        -72.8983264         56.7402245        -55.3145776         66.9867992
                      -76.6492759        -126.193596
                      -55.2494303         70.7515875        -72.2836632         58.2697487        -1.52471231        -32.6584797        -55.9880124         69.6101132
                      -73.9118872        -125.206022
                     -0.632687194         8.70942073        -55.2438211         67.5004595        -56.0356267         70.8397962          -15.33488        -66.1717487
                      -54.3678563          69.270028
                      -53.3233731         73.2421571        -79.1329976         153.282914         -73.944841        -132.504195        -54.3616692         68.1512242
                      -1.52485677        -32.5917448

           76.0294       -18.1470944        -71.6417032         -51.979586         65.8232972        -52.9902326         63.7784316       -0.593945443         6.10797075
                      -51.0706743         64.9446596
                      -52.0919255         67.1371957        -2.33331236        -40.8677583        -75.6509514         95.1826926        -53.0752456         57.4344393
                      -79.6561064         135.585884
                      -53.0323023         62.9333871        -76.8144395          93.358487         -2.3221726        -40.7793785        -53.6566466         61.7020771
                      -81.4506326         179.439596
                     -0.593768843         6.13155301        -53.0397244         58.3262617        -53.7647637         62.2732739        -17.6705329        -64.2208246
                      -52.1068462         62.3773546
                       -51.127831         65.4132668         -81.585679         121.556471        -78.2001946        -151.057065        -52.1515396         61.9111957
                      -2.33331236        -40.6456697

          95.02925       -20.2089322         -69.730626        -50.5102058         59.7627992        -51.4834103         56.3272165       -0.565874868         4.50613984
                      -49.7177271         58.5160217
                      -50.7226304         60.1799256         -3.1765407        -47.7107182          -70.46161         112.249537        -51.7074227          49.938624
                      -76.9274392         98.0319458
                      -51.5481128         56.4124668        -70.0671385          114.06161        -3.16402865        -47.6373586        -52.2373426         55.2634052
                      -78.7860216         164.458868
                     -0.565874868         4.49207476        -51.7361178         50.7488055        -52.4112441         55.7960285        -19.3676817        -61.4725709
                      -50.8078232         55.2605214
                      -49.8128829         59.4800595        -80.6713046         103.299161        -80.2423768         162.051188        -50.7588839         56.0343883
                      -3.16432838        -47.3988997

          114.0291        -21.780675         -66.972985        -49.6403874         54.3590679        -50.4820078         50.5667269       -0.556211833         3.34553102
                      -48.7752245         53.9410647
                      -49.6613461         55.5221241        -4.04199113        -53.4582151        -66.1596684         120.577223        -50.9157156         43.7116498
                      -78.3464435         70.6566048
                      -50.5459501         50.2222437        -66.6689387         126.001047        -4.01476923        -53.3677372        -51.4397625         48.8849289
                       -79.860118         143.021186
                     -0.556211833         3.32956003        -51.0148744         43.7554776        -51.6032943         48.3041699        -20.6832625        -58.2832835
                      -49.9319414         50.5195026
                      -48.8475039         54.1567764        -81.3470688         68.9442982        -79.8744093         142.982481        -49.8542057          50.454463
                      -4.01476923        -53.0704195

         133.02895       -23.1718235        -63.6606985        -49.0752634         50.1408964        -49.9337929         44.8444798       -0.547002578          2.4715718
                      -48.3607347         49.3180222
                      -49.0353074         50.5598849        -4.86822919        -58.3458881        -63.1439282         124.337036        -50.3330937         38.5434933
                      -76.0868903         92.6029299
                      -49.9754291         44.7724186        -63.1817389         130.389613        -4.85251292        -58.2143157        -50.9171592         43.6264845
                      -75.2792517         146.187417
                     -0.547002578         2.47972203        -50.4027437         37.4835288         -50.928252         42.8685491        -21.7902978        -54.9596645
                      -49.4054815         45.4891962
                      -48.3454912          49.394135        -76.5665767         92.7052778         -75.738787         146.216369        -49.4451666         45.6599848
                      -4.85251292        -57.8399669

          152.0288       -24.3863448        -59.8672297        -48.6814239         46.8929236        -49.5099921         40.6789997       -0.555582344         1.78946304
                      -47.9652655         45.9424835
                      -48.6798606         47.2705082         -5.6641012        -62.5050649        -60.7577708         126.894319        -49.8763733         33.5225047
                      -73.3902782         108.913967
                       -49.551527         40.7284788        -60.6436242         129.478715        -5.64744397        -62.3614936         -50.443792         38.8860075
                        -73.36811         142.703696
                     -0.546688155         1.76867122        -49.8633019         32.9770949        -50.4107437         39.0379046        -22.5834023        -51.7438066
                      -49.0529186         41.7429426
                      -47.9708549         45.9481726        -72.8792724         117.089473        -75.4839514         144.555725        -49.1378084         41.4799095
                      -5.64744397        -61.9095335

         171.02865       -25.4641447        -55.7439354        -48.3005035         44.7699298        -49.2112129         37.1681991       -0.555943232         1.21330379
                      -47.6565047         43.4506963
                      -48.3242873         44.9088874        -6.44822049        -66.1028403        -58.7453617         125.630709        -49.5919558          29.855744
                      -71.6119334         110.151012
                       -49.222578         37.8808786        -58.7771524         124.592937        -6.41259983        -65.9722242        -50.1649933          35.364583
                      -73.7279163         138.990189
                     -0.546688155         1.18078787        -49.5912639         29.1577972        -50.1181461         35.5220352        -23.3161603        -48.3848303
                      -48.7893208         38.8848907
                      -47.6567816         43.7672621         -71.200277         112.655021        -73.5248088         139.107449        -48.8250533         38.4939515
                      -6.39524321         -65.405373

          190.0285       -26.3309611        -51.3052387        -48.0221663          43.040364          -49.04262         34.2674886       -0.555943232        0.709642917
                      -47.4521753         41.7262372
                      -48.0171059         42.9657993        -7.17326099        -69.2557246        -57.1726863         122.929903        -49.3684121         26.1211605
                      -70.4112577          110.66972
                      -49.0150714         34.7831976        -57.0970045         120.622077         -7.1336772        -69.1342836        -50.0317311         32.8553529
                      -72.2180278         135.344359
                     -0.555489579        0.674740901        -49.3732714         25.7851026        -49.9459651         32.5234857         -23.849845        -44.9806992
                      -48.6116448         36.2712118
                      -47.4424403         42.0201479        -70.8911225         111.608153        -71.5380216         131.480177        -48.5932334         36.6265082
                      -7.11395275        -68.4196324

         209.02835       -27.0883918        -46.7487019        -47.8695216         41.6070388        -48.9513689         32.4260819       -0.555943232        0.273500615
                      -47.2794586         40.5021534
                      -47.8083942          41.670557        -7.87588152        -72.0246766        -55.7985109         120.842452        -49.1525706         22.3451307
                      -69.3122427         107.265838
                      -48.8263418         32.1591117        -55.8455319         120.216155        -7.83297087         -71.886649         -49.873113         30.9848911
                      -70.3197261         126.342832
                     -0.555943232        0.228094884        -49.2095897         22.8151824        -49.8301302         30.3526122         -24.270356        -41.6420898
                      -48.4605372         34.5395714
                      -47.2580467         40.6626628        -69.9913126         109.656129        -70.9956699         126.065518        -48.4355152         35.2060123
                      -7.79142182        -71.0624836

          228.0282       -27.7068995        -42.2552541        -47.7133774         40.5551346         -48.832911         30.5401784       -0.555943232       -0.115104038
                       -47.172637         39.5270629
                       -47.634516         40.6007869        -8.52606429        -74.5029497        -54.5751391         119.175544        -49.0062606         19.6275573
                      -68.3235359         104.374064
                      -48.6575656         30.3242184        -54.8808222         119.831368        -8.50155082         -74.338543        -49.7306605         29.3107241
                      -69.3584217         125.185953
                     -0.555943232        -0.15169414        -49.1094652         19.9270706        -49.7032894         28.6232025         -24.704969        -38.3218581
                      -48.3556761         33.4740756
                      -47.0970191          39.669712        -68.3778965         103.845543        -69.7710485         126.767921         -48.313664         33.6987545
                      -8.43383481        -73.4351458

         247.02805       -28.1502283        -37.7668944        -47.5263902          39.739618        -48.6832766         28.7554434       -0.555943232       -0.469329058
                      -47.0504523         39.1929565
                      -47.4943496         39.7414999        -9.17517828        -76.7483533        -53.5707891         118.504258        -48.9658695         17.2471002
                        -67.47188          105.45076
                      -48.6147711         28.5519951         -53.769477         118.143867        -9.10373562        -76.5795455         -49.635623         27.3999857
                      -68.5611809         126.751104
                     -0.564614538       -0.510008847         -48.981728         17.6472871        -49.5798811         26.8784581        -25.0163956         -35.109344
                      -48.3199299         32.5828054
                      -46.9780128         38.6966333        -67.3870071         107.809317        -68.5685915         127.970933         -48.258073         32.2443735
                      -9.05275039        -75.5554867

          266.0279       -28.6036164        -33.4785466        -47.4074572         39.4245351        -48.6254517         27.6802375       -0.555943232       -0.799220581
                        -46.93589         38.6759303
                       -47.407385         39.0409058        -9.74848307        -78.7716314        -52.7619765         117.061095        -48.9932376         15.4555593
                      -66.2188002         105.485728
                      -48.6234266         27.4763065        -52.7178453         117.382975        -9.69344942        -78.5905287        -49.4935715         25.9167817
                      -68.0162291         123.556982
                     -0.565208182       -0.841151553        -48.9802591         15.9445538        -49.5598451         25.4700877        -25.1818517        -32.0160575
                      -48.2863543         31.7309504
                      -46.9183988         38.1852718        -66.6281505         106.210473        -68.1339971         128.356221        -48.2589473         31.2898514
                      -9.64058123        -77.4170211

         285.02775       -28.8561112        -29.5937946        -47.4184573         38.6142058        -48.5376608         26.2246472       -0.555943232        -1.12202027
                      -46.9084113         37.9222849
                      -47.3433546         38.8855853        -10.3267069        -80.6129668        -52.1310581         115.675432        -48.9570021         13.3672005
                      -65.3898091         103.111469
                      -48.5809267         25.6483999        -51.9468312         116.006207        -10.2698534        -80.4124471        -49.4095819         24.0112485
                      -66.9496356         124.532453
                     -0.565208182        -1.12512875        -48.9064438         14.1029575        -49.5059211         24.3655985        -25.3402282        -29.0647781
                       -48.271504         30.4784009
                      -46.9449072         37.9853221         -66.001089         105.373657        -67.5033221         125.031552        -48.2115139         30.2824177
                      -10.1873418        -79.1210324

          304.0276       -29.0990453         -26.203374        -47.3302149         38.4110145        -48.5716427          25.381839       -0.555943232        -1.38452793
                      -46.8626644         37.8714467
                      -47.2277044         38.7618803        -10.8598492        -82.2962082        -51.1917673         114.429171        -48.8846941         11.3091442
                      -65.2563225         107.354567
                      -48.6551296         24.5677026         -51.140253          114.98641        -10.7994092         -82.162359        -49.4605644          22.465303
                      -65.7018766         123.055163
                       -0.5566752        -1.40294708        -48.8538507         11.8274582        -49.4184967         23.0426286        -25.3521248        -26.3842812
                      -48.2270822         29.4040224
                      -46.8746634         37.7279463        -64.9953684          107.03006        -66.5557488         118.391897        -48.1707445         29.9132146
                      -10.7095304        -80.6947448

         323.02745       -29.1186391        -23.2110728        -47.1759182         38.5492191        -48.5155603          24.305021       -0.564429269         -1.6230009
                      -46.8852092         38.2447999
