# MHz S MA R 50

1	0.77647031	-38.41166	0.0034647706	50.899029	0.61433454	50.897578	0.0035464119	50.901878	
	0.0034647706	50.899029	0.042176395	0.13480109	0.009212064	-16.811033	0.94681843	-0.0078242438	
	0.61433454	50.897578	0.009212064	-16.811033	0.75919098	-38.474236	0.0094482326	-16.772499	
	0.0035464119	50.901878	0.94681843	-0.0078242438	0.0094482326	-16.772499	0.041897087	0.13380589	
	
1.23487713750591	0.70638722	-44.255971	0.0038918314	44.892952	0.69005624	44.89116	0.0039835369	44.896469	
	0.0038918314	44.892952	0.042173953	0.17082034	0.0086899942	-18.258095	0.94681449	-0.0094637797	
	0.69005624	44.89116	0.0086899942	-18.258095	0.69066368	-44.333232	0.008913702	-18.213505	
	0.0039835369	44.896469	0.94681449	-0.0094637797	0.008913702	-18.213505	0.041894488	0.16982914	
	
1.52492154473479	0.62863598	-50.059934	0.0042760172	38.889333	0.75817584	38.88712	0.0043767772	38.893676	
	0.0042760172	38.889333	0.042171718	0.21631635	0.0081351701	-19.100706	0.94681039	-0.01144214	
	0.75817584	38.88712	0.0081351701	-19.100706	0.61463819	-50.155318	0.0083457021	-19.050381	
	0.0043767772	38.893676	0.94681039	-0.01144214	0.0083457021	-19.050381	0.041892096	0.21538566	
	
1.88309075208318	0.54780722	-55.560568	0.0045998899	33.14234	0.81560143	33.139608	0.0047082841	33.147704	
	0.0045998899	33.14234	0.042170016	0.27320216	0.0075913924	-19.191497	0.94680638	-0.013853077	
	0.81560143	33.139608	0.0075913924	-19.191497	0.535603	-55.678314	0.007789092	-19.136374	
	0.0047082841	33.147704	0.94680638	-0.013853077	0.007789092	-19.136374	0.041890248	0.27238479	
	
2.32538571759633	0.4686533	-60.543964	0.0048570816	27.855084	0.86120392	27.85171	0.0049715395	27.861708	
	0.0048570816	27.855084	0.042169114	0.34371782	0.0070988391	-18.515245	0.94680258	-0.016817878	
	0.86120392	27.85171	0.0070988391	-18.515245	0.45820465	-60.689286	0.0072850004	-18.456807	
	0.0049715395	27.861708	0.94680258	-0.016817878	0.0072850004	-18.456807	0.041889218	0.34305537	
	
2.87156565854248	0.39498538	-64.872816	0.005051193	23.151674	0.89562176	23.147508	0.0051702293	23.159853	
	0.005051193	23.151674	0.042169191	0.43063921	0.006683692	-17.195061	0.946799	-0.020485821	
	0.89562176	23.147508	0.006683692	-17.195061	0.38616944	-65.052123	0.0068602052	-17.135029	
	0.0051702293	23.159853	0.946799	-0.020485821	0.0068602052	-17.135029	0.041889191	0.43015995	
	
3.54603078058121	0.32915258	-68.485864	0.0051918815	19.077348	0.92056731	19.072203	0.0053142386	19.087448	
	0.0051918815	19.077348	0.042170378	0.53750016	0.0063548717	-15.445336	0.94679555	-0.025036342	
	0.92056731	19.072203	0.0063548717	-15.445336	0.32179401	-68.707009	0.0065238038	-15.385206	
	0.0053142386	19.087448	0.94679555	-0.025036342	0.0065238038	-15.385206	0.041890292	0.53722184	
	
4.37891233983196	0.2721091	-71.378965	0.0052907821	15.616964	0.93810358	15.61061	0.0054154768	15.629436	
	0.0052907821	15.616964	0.042172812	0.66879906	0.0061073531	-13.500535	0.94679206	-0.030684773	
	0.93810358	15.61061	0.0061073531	-13.500535	0.26601112	-71.651537	0.0062706211	-13.441177	
	0.0054154768	15.629436	0.94679206	-0.030684773	0.0062706211	-13.441177	0.041892656	0.66873389	
	
5.407418735601	0.22379094	-73.581343	0.0053587853	12.718418	0.95016157	12.710571	0.0054850914	12.733819	
	0.0053587853	12.718418	0.042176706	0.83020306	0.0059282973	-11.557205	0.94678831	-0.037691697	
	0.95016157	12.710571	0.0059282973	-11.557205	0.21875788	-73.916973	0.0060874956	-11.498666	
	0.0054850914	12.733819	0.94678831	-0.037691697	0.0060874956	-11.498666	0.04189649	0.83036282	
	
6.67749776951478	0.18353488	-75.135802	0.0054048201	10.312362	0.95832456	10.302672	0.0055322226	10.33138	
	0.0054048201	10.312362	0.042182414	1.0287805	0.0058025677	-9.7481041	0.94678407	-0.046375323	
	0.95832456	10.302672	0.0058025677	-9.7481041	0.17938549	-75.548477	0.005958926	-9.6896349	
	0.0055322226	10.33138	0.94678407	-0.046375323	0.005958926	-9.6896349	0.041902138	1.0291807	
	
8.2458893313205	0.15040619	-76.086011	0.0054356474	8.3254808	0.96379136	8.3135145	0.0055637911	8.3489651	
	0.0054356474	8.3254808	0.042190493	1.2732882	0.0057161603	-8.144308	0.9467791	-0.057126645	
	0.96379136	8.3135145	0.0057161603	-8.144308	0.14697968	-76.592308	0.0058705796	-8.0844886	
	0.0055637911	8.3489651	0.9467791	-0.057126645	0.0058705796	-8.0844886	0.041910155	1.2739513	
	
10.1826602136516	0.123409	-76.470748	0.005456134	6.688002	0.96742503	6.6732245	0.0055847796	6.7170013	
	0.005456134	6.688002	0.042201805	1.5745319	0.0056576632	-6.7709851	0.9467731	-0.070427682	
	0.96742503	6.6732245	0.0056576632	-6.7709851	0.12056644	-77.089888	0.0058107802	-6.7078642	
	0.0055847796	6.7170013	0.9467731	-0.070427682	0.0058107802	-6.7078642	0.041921392	1.5754897	
	
12.5743342968294	0.10160183	-76.324335	0.0054696711	5.3371656	0.96982701	5.3189161	0.0055986607	5.3729747	
	0.0054696711	5.3371656	0.042217642	1.9458135	0.0056184617	-5.6250056	0.94676576	-0.086873535	
	0.96982701	5.3189161	0.0056184617	-5.6250056	0.099225057	-77.077856	0.0057707165	-5.5561821	
	0.0055986607	5.3729747	0.94676576	-0.086873535	0.0057707165	-5.5561821	0.041937135	1.9471096	
	
15.527757942511	0.084150311	-75.682991	0.0054785708	4.2182549	0.97140752	4.1957175	0.0056078028	4.2624726	
	0.0054785708	4.2182549	0.042239934	2.4034753	0.0055923617	-4.6887948	0.94675668	-0.10719929	
	0.97140752	4.1957175	0.0055923617	-4.6887948	0.082139913	-76.593747	0.0057440537	-4.6114304	
	0.0056078028	4.2624726	0.94675668	-0.10719929	0.0057440537	-4.6114304	0.041959301	2.4051674	
	
19.1748732799326	0.07034319	-74.597379	0.0054843862	3.2843141	0.97244232	3.2564807	0.0056137988	3.3389142	
	0.0054843862	3.2843141	0.04227155	2.9675506	0.0055750463	-3.93941	0.94674536	-0.13231303	
	0.97244232	3.2564807	0.0055750463	-3.93941	0.068616335	-75.68751	0.0057263779	-3.8501795	
	0.0056137988	3.3389142	0.94674536	-0.13231303	0.0057263779	-3.8501795	0.041990743	2.9697127	
	
23.6786126279617	0.059588878	-73.151059	0.0054881485	2.4952444	0.9731148	2.4608698	0.005617708	2.5626638	
	0.0054881485	2.4952444	0.042316762	3.6625192	0.0055635665	-3.3537789	0.94673117	-0.16333646	
	0.9731148	2.4608698	0.0055635665	-3.3537789	0.058077669	-74.438686	0.005714674	-3.2487679	
	0.005617708	2.5626638	0.94673117	-0.16333646	0.005714674	-3.2487679	0.04203571	3.6652449	
	
29.2401773821287	0.051403329	-71.481644	0.0054905342	1.8166639	0.97354578	1.7742099	0.005620229	1.899911	
	0.0054905342	1.8166639	0.042381939	4.5181549	0.0055559314	-2.9114012	0.94671329	-0.20165499	
	0.97354578	1.7742099	0.0055559314	-2.9114012	0.050053851	-72.976459	0.0057069066	-2.7859576	
	0.005620229	1.899911	0.94671329	-0.20165499	0.0057069066	-2.7859576	0.042100538	4.52156	
	
36.1080265458081	0.045395986	-69.795703	0.0054919795	1.2187237	0.97381391	1.1662896	0.0056218168	1.3215122	
	0.0054919795	1.2187237	0.042476582	5.5704108	0.0055508037	-2.5955671	0.94669064	-0.24897954	
	0.97381391	1.1662896	0.0055508037	-2.5955671	0.044168018	-71.494336	0.0057017083	-2.4441087	
	0.0056218168	1.3215122	0.94669064	-0.24897954	0.0057017083	-2.4441087	0.042194678	5.5746368	
	
44.5889764618748	0.041258791	-68.362758	0.0054927559	0.67496453	0.97396927	0.61020156	0.0056227618	0.80187836	
	0.0054927559	0.67496453	0.042614879	6.862227	0.0055472827	-2.3938009	0.94666179	-0.30742279	
	0.97396927	0.61020156	0.0055472827	-2.3938009	0.0401257	-70.245422	0.0056981574	-2.2095739	
	0.0056227618	0.80187836	0.94666179	-0.30742279	0.0056981574	-2.2095739	0.042332242	6.8674437	
	
55.0619076175583	0.038761634	-67.475848	0.005493018	0.16123746	0.97404226	0.081242933	0.0056232407	0.3179345	
	0.005493018	0.16123746	0.042817985	8.4440201	0.0055447526	-2.2979534	0.94662481	-0.37959323	
	0.97404226	0.081242933	0.0055447526	-2.2979534	0.037709753	-69.505378	0.0056956223	-2.0727361	
	0.0056232407	0.3179345	0.94662481	-0.37959323	0.0056956223	-2.0727361	0.042534277	8.4504264	
	
67.9946908643852	0.037754813	-67.382428	0.0054928316	-0.34531654	0.97404909	-0.44413086	0.0056233484	-0.15185374	
	0.0054928316	-0.34531654	0.043117351	10.373413	0.0055427766	-2.3041876	0.94657709	-0.46871112	
	0.97404909	-0.44413086	0.0055427766	-2.3041876	0.036781596	-69.505662	0.0056936526	-2.0279263	
	0.0056233484	-0.15185374	0.94657709	-0.46871112	0.0056936526	-2.0279263	0.042832066	10.381234	
	
83.9650892202111	0.038174999	-68.212559	0.0054921864	-0.86725191	0.97399477	-0.98932273	0.0056231148	-0.62840679	
	0.0054921864	-0.86725191	0.043559461	12.713442	0.0055410208	-2.412989	0.946515	-0.57875145	
	0.97399477	-0.98932273	0.0055410208	-2.412989	0.03728574	-70.363671	0.0056918992	-2.0733525	
	0.0056231148	-0.62840679	0.946515	-0.57875145	0.0056918992	-2.0733525	0.043271848	12.722919	
	
103.686569026683	0.040048924	-69.941411	0.0054909949	-1.4277974	0.97387422	-1.5786122	0.0056225111	-1.1329381	
	0.0054909949	-1.4277974	0.044212373	15.528078	0.0055391958	-2.6292728	0.94643353	-0.71461995	
	0.97387422	-1.5786122	0.0055391958	-2.6292728	0.039252515	-72.047925	0.0056900535	-2.2111061	
	0.0056225111	-1.1329381	0.94643353	-0.71461995	0.0056900535	-2.2111061	0.043921321	15.539448	
	
128.040173557479	0.043491133	-72.40768	0.0054890782	-2.0518608	0.97367156	-2.2382095	0.005621445	-1.6878705	
	0.0054890782	-2.0518608	0.04517431	18.873499	0.0055370064	-2.962628	0.9463256	-0.88236961	
	0.97367156	-2.2382095	0.0055370064	-2.962628	0.042795908	-74.399933	0.0056877919	-2.4472844	
	0.005621445	-1.6878705	0.9463256	-0.88236961	0.0056877919	-2.4472844	0.044878177	18.886952	
	
158.113883008419	0.048697359	-75.378258	0.0054861357	-2.7670926	0.9733576	-2.9973805	0.0056197456	-2.3177896	
	0.0054861357	-2.7670926	0.04658412	22.783693	0.0055341003	-3.4277191	0.94618116	-1.0894666	
	0.9733576	-2.9973805	0.0055341003	-3.4277191	0.048108198	-77.20023	0.0056847184	-2.7922426	
	0.0056197456	-2.3177896	0.94618116	-1.0894666	0.0056847184	-2.7922426	0.046280507	22.799313	
	
195.251219249381	0.055938785	-78.625241	0.0054816947	-3.6050355	0.9728851	-3.8896742	0.0056171343	-3.050458	
	0.0054816947	-3.6050355	0.048632593	27.25041	0.0055300082	-4.0448513	0.94598582	-1.3451157	
	0.9728851	-3.8896742	0.0055300082	-4.0448513	0.055456153	-80.242133	0.0056802958	-3.2609819	
	0.0056171343	-3.050458	0.94598582	-1.3451157	0.0056802958	-3.2609819	0.048318037	27.268098	
	
241.111266721214	0.065561534	-81.98141	0.0054750302	-4.6023792	0.97218108	-4.9542757	0.0056131787	-3.9179011	
	0.0054750302	-4.6023792	0.051572503	32.201218	0.0055240649	-4.8406921	0.94571873	-1.6606585	
	0.97218108	-4.9542757	0.0055240649	-4.8406921	0.065182223	-83.380883	0.0056737515	-3.8736609	
	0.0056131787	-3.9179011	0.94571873	-1.6606585	0.0056737515	-3.8736609	0.051242094	32.220621	
	
297.742790869116	0.077991563	-85.360977	0.0054650446	-5.8023182	0.9711352	-6.2374887	0.0056072219	-4.9575517	
	0.0054650446	-5.8023182	0.055724582	37.484918	0.0055152999	-5.8491064	0.94534959	-2.0500548	
	0.9711352	-6.2374887	0.0055152999	-5.8491064	0.077710338	-86.548915	0.0056639462	-4.6561913	
	0.0056072219	-4.9575517	0.94534959	-2.0500548	0.0056639462	-4.6561913	0.055371525	37.505407	
	
367.675765301474	0.093741003	-88.753439	0.0054500901	-7.2559657	0.96958289	-7.7943111	0.0055982805	-6.2133952	
	0.0054500901	-7.2559657	0.06147774	42.876552	0.0055022834	-7.1120047	0.944834	-2.5304642	
	0.96958289	-7.7943111	0.0055022834	-7.1120047	0.093552327	-89.747438	0.0056491854	-5.6408264	
	0.0055982805	-6.2133952	0.944834	-2.5304642	0.0056491854	-5.6408264	0.061092898	42.897288	
	
454.034396585779	0.11340899	-92.205804	0.0054277139	-9.0237013	0.9672818	-9.6899921	0.0055849018	-7.7369672	
	0.0054277139	-9.0237013	0.069285121	48.108304	0.0054829141	-8.6799928	0.94410666	-3.1229346	
	0.9672818	-9.6899921	0.0054829141	-8.6799928	0.11330838	-93.029146	0.0056269505	-6.8665555	
	0.0055849018	-7.7369672	0.94410666	-3.1229346	0.0056269505	-6.8665555	0.068856574	48.128391	
	
560.676695985069	0.13766689	-95.804417	0.005394306	-11.17619	0.96388121	-12.00133	0.0055649783	-9.5879108	
	0.005394306	-11.17619	0.079661235	52.917312	0.0054541355	-10.612408	0.94307124	-3.8532044	
	0.96388121	-12.00133	0.0054541355	-10.612408	0.13765183	-96.481754	0.0055935277	-8.3789404	
	0.0055649783	-9.5879108	0.94307124	-3.8532044	0.0055935277	-8.3789404	0.079173883	52.935975	
	
692.366833404313	0.16721254	-99.66079	0.0053446404	-13.794586	0.95888678	-14.817259	0.0055355332	-11.833555	
	0.0053446404	-13.794586	0.093185666	57.089005	0.0054115925	-12.975991	0.94158549	-4.7526014	
	0.95888678	-14.817259	0.0054115925	-12.975991	0.16728295	-100.21559	0.0055435183	-10.228736	
	0.0055355332	-11.833555	0.94158549	-4.7526014	0.0055435183	-10.228736	0.092620839	57.105716	
	
854.987973338349	0.20266972	-103.90115	0.005271339	-16.969146	0.95163035	-18.238008	0.0054925378	-14.546652	
	0.005271339	-16.969146	0.11051442	60.477954	0.0053492844	-15.840918	0.93943954	-5.8589908	
	0.95163035	-18.238008	0.0053492844	-15.840918	0.20282818	-104.35448	0.0054692503	-12.46817	
	0.0054925378	-14.546652	0.93943954	-5.8589908	0.0054692503	-12.46817	0.10984945	60.492462	
	
1055.80510111804	0.24440012	-108.65739	0.0051643677	-20.795173	0.94127054	-22.371885	0.0054309177	-17.800109	
	0.0051643677	-20.795173	0.13239361	63.003755	0.0052593886	-19.272268	0.93632514	-7.2176523	
	0.94127054	-22.371885	0.0052593886	-19.272268	0.24465185	-109.02749	0.0053601872	-15.143084	
	0.0054309177	-17.800109	0.93632514	-7.2176523	0.0053601872	-15.143084	0.13160134	63.016037	
	
1303.78958103278	0.29219093	-114.057	0.0050108173	-25.365368	0.92687661	-27.329034	0.005345074	-21.657688	
	0.0050108173	-25.365368	0.15966506	64.632098	0.0051326254	-23.314394	0.93179312	-8.8818484	
	0.92687661	-27.329034	0.0051326254	-23.314394	0.29254358	-114.35935	0.0052025594	-18.278325	
	0.005345074	-21.657688	0.93179312	-8.8818484	0.0052025594	-18.278325	0.15871327	64.642292	
	
1610.01994573579	0.34479601	-120.21136	0.0047953661	-30.759059	0.90768487	-33.213338	0.00523048	-26.161307	
	0.0047953661	-30.759059	0.19324912	65.35333	0.0049598191	-27.966049	0.92519831	-10.912635	
	0.90768487	-33.213338	0.0049598191	-27.966049	0.34525936	-120.45898	0.0049795886	-21.852633	
	0.00523048	-26.161307	0.92519831	-10.912635	0.0049795886	-21.852633	0.19210012	65.361662	
	
1988.17682191763	0.39934659	-127.20672	0.0045017329	-37.033062	0.88364117	-40.119117	0.0050870952	-31.320947	
	0.0045017329	-37.033062	0.23408494	65.166378	0.0047355433	-33.146919	0.91563488	-13.377149	
	0.88364117	-40.119117	0.0047355433	-33.146919	0.39993244	-127.41057	0.0046726232	-25.756278	
	0.0050870952	-31.320947	0.91563488	-13.377149	0.0046726232	-25.756278	0.23269542	65.173113	
	
2455.15410270523	0.45065473	-135.11174	0.0041145847	-44.227521	0.85631902	-48.151626	0.0049252571	-37.125797	
	0.0041145847	-44.227521	0.28300202	64.071296	0.004464699	-38.664931	0.90187612	-16.344197	
	0.85631902	-48.151626	0.004464699	-38.664931	0.4513778	-135.28125	0.004262933	-29.709986	
	0.0049252571	-37.125797	0.90187612	-16.344197	0.004262933	-29.709986	0.28132373	64.076712	
	
3031.81367048453	0.49016217	-144.03113	0.0036190215	-52.411631	0.83022744	-57.515999	0.0047744159	-43.622576	
	0.0036190215	-52.411631	0.34049505	62.071225	0.0041726912	-44.217858	0.88235246	-19.875593	
	0.83022744	-57.515999	0.0041726912	-44.217858	0.49104361	-144.17493	0.0037330937	-33.049289	
	0.0047744159	-43.622576	0.88235246	-19.875593	0.0037330937	-33.049289	0.33847685	62.075599	
	
3743.91738685922	0.50298749	-154.2513	0.0029898951	-61.792108	0.81452438	-68.783076	0.0046955217	-51.176044	
	0.0029898951	-61.792108	0.40639136	59.1836	0.0039211422	-49.549189	0.85523053	-24.011837	
	0.81452438	-68.783076	0.0039211422	-49.549189	0.50406385	-154.37906	0.0030717115	-33.894889	
	0.0046955217	-51.176044	0.85523053	-24.011837	0.0030717115	-33.894889	0.40398339	59.187198	
	
4623.27798574331	0.45661632	-166.42418	0.002151516	-72.653373	0.82478078	-83.662846	0.0047973162	-61.260814	
	0.002151516	-72.653373	0.4794582	55.459068	0.0038349222	-55.239991	0.81867865	-28.752273	
	0.82478078	-83.662846	0.0038349222	-55.239991	0.45795393	-166.5544	0.0023537296	-25.290054	
	0.0047973162	-61.260814	0.81867865	-28.752273	0.0023537296	-25.290054	0.47661871	55.462132	
	
5709.18028492878	0.26125839	-177.04877	0.00089422169	-76.124782	0.87178157	-107.36049	0.0051861281	-78.89367	
	0.00089422169	-76.124782	0.55710652	51.003207	0.0041017229	-65.78831	0.77137508	-34.033685	
	0.87178157	-107.36049	0.0041017229	-65.78831	0.26283721	-177.31889	0.0024834196	4.6372217	
	0.0051861281	-78.89367	0.77137508	-34.033685	0.0024834196	4.6372217	0.5538116	51.005837	
	
7050.13620775802	0.34978135	-82.201871	0.0014780278	12.476686	0.81028199	-150.38041	0.0050490992	-114.59752	
	0.0014780278	12.476686	0.63545438	45.990738	0.0042580484	-93.301373	0.71317454	-39.716873	
	0.81028199	-150.38041	0.0042580484	-93.301373	0.34768772	-82.31388	0.0047537491	1.6747684	
	0.0050490992	-114.59752	0.71317454	-39.716873	0.0047537491	1.6747684	0.63170339	45.992224	
	
8706.05201926298	0.83902072	-114.01184	0.0025513543	-21.407888	0.43700412	163.59601	0.0029524297	-152.45431	
	0.0025513543	-21.407888	0.70994368	40.659428	0.0028584993	-125.49405	0.64564069	-45.591462	
	0.43700412	163.59601	0.0028584993	-125.49405	0.83760172	-114.04346	0.0052742021	-29.454662	
	0.0029524297	-152.45431	0.64564069	-45.591462	0.0052742021	-29.454662	0.70574435	40.659701	
	
10750.904596525	0.96249791	-135.93129	0.0023275465	-43.353045	0.19178488	138.76969	0.0014617234	-169.02367	
	0.0023275465	-43.353045	0.77642492	35.280905	0.0016576974	-140.72531	0.5720639	-51.409801	
	0.19178488	138.76969	0.0016576974	-140.72531	0.96173132	-135.95616	0.0042795418	-47.843843	
	0.0014617234	-169.02367	0.5720639	-51.409801	0.0042795418	-47.843843	0.77182374	35.281035	
	
13276.0462937559	0.98808078	-147.94397	0.00193125	-55.452952	0.08829538	125.52614	0.00078699274	-174.71204	
	0.00193125	-55.452952	0.8322092	30.110754	0.0010198959	-148.28879	0.49670729	-56.936482	
	0.08829538	125.52614	0.0010198959	-148.28879	0.98764576	-147.96455	0.0034031545	-57.925617	
	0.00078699274	-174.71204	0.49670729	-56.936482	0.0034031545	-57.925617	0.82727374	30.110895	
	
16394.2860446292	0.99484068	-155.55063	0.0015783	-63.238223	0.04283511	117.24429	0.00045829756	-176.61004	
	0.0015783	-63.238223	0.87648513	25.345704	0.00065410357	-153.5122	0.42373636	-61.990475	
	0.04283511	117.24429	0.00065410357	-153.5122	0.99458035	-155.56758	0.002733475	-64.594666	
	0.00045829756	-176.61004	0.42373636	-61.990475	0.002733475	-64.594666	0.87128535	25.345844	
	
20244.9290222448	0.997154	-160.88315	0.0012851889	-68.801168	0.02149336	111.48766	0.00028041218	-177.23663	
	0.0012851889	-68.801168	0.9100339	21.103677	0.00042704294	-157.74993	0.35633922	-66.46661	
	0.02149336	111.48766	0.00042704294	-157.74993	0.99699281	-160.89703	0.0022094393	-69.542618	
	0.00028041218	-177.23663	0.35633922	-66.46661	0.0022094393	-69.542618	0.90463417	21.103804	
	
25000	0.99815809	-164.84559	0.0010448785	-73.009735	0.011011398	107.23606	0.00017661798	-177.46343	
	0.0010448785	-73.009735	0.93455461	17.428179	0.00028058408	-161.32957	0.29637763	-70.331755	
	0.011011398	107.23606	0.00028058408	-161.32957	0.99805616	-164.85692	0.0017905284	-73.41405	
	0.00017661798	-177.46343	0.29637763	-70.331755	0.0017905284	-73.41405	0.92900886	17.428289	
	
