# MHz S MA R 50

1	0.99616747	-8.0549682e-005	0.0016426925	0.020925553	0.0021859982	0.0029603022	3.8348752e-006	0.012394481	
	0.0016426925	0.020925553	0.99590662	-1.4794025e-005	3.8528697e-006	-5.1134654	0.0024468457	-1.4080495e-005	
	0.0021859982	0.0029603022	3.8528697e-006	-5.1134654	0.99614413	-0.036026325	0.0016628951	-0.017992822	
	3.8348752e-006	0.012394481	0.0024468457	-1.4080495e-005	0.0016628951	-0.017992822	0.99588642	-2.5070406e-008	
	
1.23487713750591	0.99616747	-6.5247259e-005	0.0016426925	0.016945434	0.0021859974	-0.0052394347	3.8348746e-006	0.006410615	
	0.0016426925	0.016945434	0.99590662	-1.198016e-005	3.8475906e-006	-4.1522977	0.0024468457	-1.1412321e-005	
	0.0021859974	-0.0052394347	3.8475906e-006	-4.1522977	0.9961434	-0.044476951	0.0016628944	-0.022207215	
	3.8348746e-006	0.006410615	0.0024468457	-1.1412321e-005	0.0016628944	-0.022207215	0.99588642	-3.0924574e-008	
	
1.52492154473479	0.99616747	-5.2859709e-005	0.0016426926	0.01372234	0.0021859964	-0.013673234	3.8348737e-006	0.00071314284	
	0.0016426926	0.01372234	0.99590662	-9.7015001e-006	3.8441239e-006	-3.3739681	0.0024468457	-9.253984e-006	
	0.0021859964	-0.013673234	3.8441239e-006	-3.3739681	0.99614249	-0.054914552	0.0016628936	-0.027413694	
	3.8348737e-006	0.00071314284	0.0024468457	-9.253984e-006	0.0016628936	-0.027413694	0.99588642	-3.8160257e-008	
	
1.88309075208318	0.99616747	-4.2833628e-005	0.0016426926	0.011112283	0.002185995	-0.022717865	3.8348726e-006	-0.0049524631	
	0.0016426926	0.011112283	0.99590662	-7.8562475e-006	3.8418477e-006	-2.7449491	0.0024468457	-7.5090625e-006	
	0.002185995	-0.022717865	3.8418477e-006	-2.7449491	0.99614137	-0.067805422	0.0016628926	-0.033844851	
	3.8348726e-006	-0.0049524631	0.0024468457	-7.5090625e-006	0.0016628926	-0.033844851	0.99588642	-4.7100695e-008	
	
2.32538571759633	0.99616747	-3.4721109e-005	0.0016426926	0.0089986581	0.0021859933	-0.032777386	3.8348711e-006	-0.010839306	
	0.0016426926	0.0089986581	0.99590662	-6.3619671e-006	3.8403529e-006	-2.2378036	0.0024468457	-6.0996035e-006	
	0.0021859933	-0.032777386	3.8403529e-006	-2.2378036	0.99613999	-0.083725448	0.0016628913	-0.041787988	
	3.8348711e-006	-0.010839306	0.0024468457	-6.0996035e-006	0.0016628913	-0.041787988	0.99588642	-5.814528e-008	
	
2.87156565854248	0.99616747	-2.815973e-005	0.0016426926	0.0072870424	0.0021859912	-0.044301191	3.8348691e-006	-0.01721037	
	0.0016426926	0.0072870424	0.99590662	-5.1519031e-006	3.8393704e-006	-1.8302286	0.0024468457	-4.9626403e-006	
	0.0021859912	-0.044301191	3.8393704e-006	-1.8302286	0.99613828	-0.10338584	0.0016628896	-0.051597951	
	3.8348691e-006	-0.01721037	0.0024468457	-4.9626403e-006	0.0016628896	-0.051597951	0.99588642	-7.1787395e-008	
	
3.54603078058121	0.99616747	-2.2856368e-005	0.0016426926	0.0059009702	0.0021859884	-0.057804083	3.8348666e-006	-0.024350268	
	0.0016426926	0.0059009702	0.99590662	-4.1719967e-006	3.8387237e-006	-1.5042043	0.0024468457	-4.0473799e-006	
	0.0021859884	-0.057804083	3.8387237e-006	-1.5042043	0.99613617	-0.12766492	0.0016628875	-0.063712979	
	3.8348666e-006	-0.024350268	0.0024468457	-4.0473799e-006	0.0016628875	-0.063712979	0.99588642	-8.8636452e-008	
	
4.37891233983196	0.99616747	-1.8574097e-005	0.0016426926	0.0047785196	0.0021859848	-0.073889275	3.8348634e-006	-0.032577953	
	0.0016426926	0.0047785196	0.99590662	-3.3784713e-006	3.8382964e-006	-1.2452657	0.0024468457	-3.3129337e-006	
	0.0021859848	-0.073889275	3.8382964e-006	-1.2452657	0.99613357	-0.15764732	0.0016628848	-0.078674281	
	3.8348634e-006	-0.032577953	0.0024468457	-3.3129337e-006	0.0016628848	-0.078674281	0.99588642	-1.0944511e-007	
	
5.407418735601	0.99616747	-1.512161e-005	0.0016426926	0.0038695461	0.0021859802	-0.093275326	3.834859e-006	-0.042260967	
	0.0016426926	0.0038695461	0.99590662	-2.7358767e-006	3.8380122e-006	-1.0418981	0.0024468457	-2.7264906e-006	
	0.0021859802	-0.093275326	3.8380122e-006	-1.0418981	0.99613035	-0.19467246	0.0016628813	-0.097150211	
	3.834859e-006	-0.042260967	0.0024468457	-2.7264906e-006	0.0016628813	-0.097150211	0.99588642	-1.3514286e-007	
	
6.67749776951478	0.99616747	-1.234467e-005	0.0016426926	0.0031334418	0.0021859742	-0.11682824	3.8348533e-006	-0.05383185	
	0.0016426926	0.0031334418	0.99590662	-2.2155055e-006	3.8378206e-006	-0.88504445	0.0024468457	-2.2618516e-006	
	0.0021859742	-0.11682824	3.8378206e-006	-0.88504445	0.99612638	-0.24039439	0.0016628767	-0.11996611	
	3.8348533e-006	-0.05383185	0.0024468457	-2.2618516e-006	0.0016628767	-0.11996611	0.99588642	-1.6687758e-007	
	
8.2458893313205	0.99616747	-1.0119218e-005	0.0016426926	0.0025373218	0.0021859663	-0.14560014	3.8348457e-006	-0.067807454	
	0.0016426926	0.0025373218	0.99590662	-1.7941104e-006	3.837688e-006	-0.76771228	0.0024468457	-1.8982591e-006	
	0.0021859663	-0.14560014	3.837688e-006	-0.76771228	0.99612148	-0.29685565	0.0016628707	-0.14814118	
	3.8348457e-006	-0.067807454	0.0024468457	-1.8982591e-006	0.0016628707	-0.14814118	0.99588642	-2.0606668e-007	
	
10.1826602136516	0.99616747	-8.3458317e-006	0.0016426926	0.0020545549	0.0021859559	-0.18087624	3.8348353e-006	-0.084812015	
	0.0016426926	0.0020545549	0.99590662	-1.452866e-006	3.8375917e-006	-0.6846677	0.0024468457	-1.6194692e-006	
	0.0021859559	-0.18087624	3.8375917e-006	-0.6846677	0.99611544	-0.36657848	0.0016628628	-0.18293397	
	3.8348353e-006	-0.084812015	0.0024468457	-1.6194692e-006	0.0016628628	-0.18293397	0.99588642	-2.5446044e-007	
	
12.5743342968294	0.99616747	-6.9452865e-006	0.0016426926	0.0016635738	0.0021859418	-0.22423223	3.834821e-006	-0.10560501	
	0.0016426926	0.0016635738	0.99590662	-1.1765273e-006	3.837516e-006	-0.63220475	0.0024468457	-1.4130265e-006	
	0.0021859418	-0.22423223	3.837516e-006	-0.63220475	0.99610797	-0.45267748	0.0016628521	-0.22589857	
	3.834821e-006	-0.10560501	0.0024468457	-1.4130265e-006	0.0016628521	-0.22589857	0.99588642	-3.1421998e-007	
	
15.527757942511	0.99616747	-5.855014e-006	0.0016426926	0.0013469117	0.0021859228	-0.2776046	3.8348012e-006	-0.13111502	
	0.0016426926	0.0013469117	0.99590662	-9.5274922e-007	3.8374491e-006	-0.60798151	0.0024468457	-1.269707e-006	
	0.0021859228	-0.2776046	3.8374491e-006	-0.60798151	0.99609876	-0.55899867	0.0016628376	-0.278954	
	3.8348012e-006	-0.13111502	0.0024468457	-1.269707e-006	0.0016628376	-0.278954	0.99588642	-3.8801359e-007	
	
19.1748732799326	0.99616747	-5.0262957e-006	0.0016426926	0.001090422	0.0021858967	-0.34337703	3.8347735e-006	-0.16248115	
	0.0016426926	0.001090422	0.99590662	-7.7153449e-007	3.8373813e-006	-0.61091633	0.0024468457	-1.1831056e-006	
	0.0021858967	-0.34337703	3.8373813e-006	-0.61091633	0.9960874	-0.69029111	0.0016628177	-0.34446977	
	3.8347735e-006	-0.16248115	0.0024468457	-1.1831056e-006	0.0016628177	-0.34446977	0.99588642	-4.7913546e-007	
	
23.6786126279617	0.99616747	-4.4221112e-006	0.0016426926	0.0008826461	0.0021858605	-0.42448664	3.8347343e-006	-0.20110367	
	0.0016426926	0.0008826461	0.99590662	-6.2478752e-007	3.8373034e-006	-0.64113975	0.0024468457	-1.1493493e-006	
	0.0021858605	-0.42448664	3.8373034e-006	-0.64113975	0.99607338	-0.85241874	0.0016627902	-0.42537154	
	3.8347343e-006	-0.20110367	0.0024468457	-1.1493493e-006	0.0016627902	-0.42537154	0.99588642	-5.9165206e-007	
	
29.2401773821287	0.99616747	-4.0154476e-006	0.0016426926	0.00071430184	0.0021858098	-0.52455486	3.8346783e-006	-0.24870633	
	0.0016426926	0.00071430184	0.99590662	-5.059525e-007	3.837205e-006	-0.70000022	0.0024468457	-1.166923e-006	
	0.0021858098	-0.52455486	3.837205e-006	-0.70000022	0.99605609	-1.0526218	0.0016627517	-0.52527145	
	3.8346783e-006	-0.24870633	0.0024468457	-1.166923e-006	0.0016627517	-0.52527145	0.99588642	-7.3058227e-007	
	
36.1080265458081	0.99616747	-3.7881175e-006	0.0016426926	0.00057786856	0.0021857381	-0.64804849	3.8345974e-006	-0.30741276	
	0.0016426926	0.00057786856	0.99590662	-4.0972055e-007	3.8370729e-006	-0.79012379	0.0024468457	-1.2365988e-006	
	0.0021857381	-0.64804849	3.8370729e-006	-0.79012379	0.99603478	-1.2998391	0.0016626971	-0.64862878	
	3.8345974e-006	-0.30741276	0.0024468457	-1.2365988e-006	0.0016626971	-0.64862878	0.99588642	-9.0211895e-007	
	
44.5889764618748	0.99616747	-3.7299132e-006	0.0016426926	0.00046725127	0.0021856355	-0.800478	3.8344798e-006	-0.37984026	
	0.0016426926	0.00046725127	0.99590662	-3.3179258e-007	3.8368888e-006	-0.91553026	0.0024468457	-1.3614661e-006	
	0.0021856355	-0.800478	3.8368888e-006	-0.91553026	0.99600851	-1.6051052	0.0016626191	-0.80094792	
	3.8344798e-006	-0.37984026	0.0024468457	-1.3614661e-006	0.0016626191	-0.80094792	0.99588642	-1.1139006e-006	
	
55.0619076175583	0.99616747	-3.8381734e-006	0.0016426926	0.00037750827	0.0021854876	-0.98864142	3.8343076e-006	-0.46921487	
	0.0016426926	0.00037750827	0.99590662	-2.6868721e-007	3.8366264e-006	-1.0818105	0.0024468457	-1.547061e-006	
	0.0021854876	-0.98864142	3.8366264e-006	-1.0818105	0.99597616	-1.9820395	0.0016625065	-0.98902196	
	3.8343076e-006	-0.46921487	0.0024468457	-1.547061e-006	0.0016625065	-0.98902196	0.99588642	-1.3753434e-006	
	
67.9946908643852	0.99616747	-4.1175808e-006	0.0016426926	0.00030463054	0.0021852724	-1.2209238	3.8340536e-006	-0.5795119	
	0.0016426926	0.00030463054	0.99590662	-2.1758525e-007	3.8362469e-006	-1.2963719	0.0024468457	-1.8015978e-006	
	0.0021852724	-1.2209238	3.8362469e-006	-1.2963719	0.99593635	-2.4474472	0.0016623429	-1.221232	
	3.8340536e-006	-0.5795119	0.0024468457	-1.8015978e-006	0.0016623429	-1.221232	0.99588642	-1.6980451e-006	
	
83.9650892202111	0.99616747	-4.5803585e-006	0.0016426926	0.00024536257	0.0021849573	-1.5076641	3.8336771e-006	-0.71562701	
	0.0016426926	0.00024536257	0.99590662	-1.7620376e-007	3.8356925e-006	-1.5687618	0.0024468457	-2.1363065e-006	
	0.0021849573	-1.5076641	3.8356925e-006	-1.5687618	0.99588738	-3.0220556	0.0016621031	-1.5079137	
	3.8336771e-006	-0.71562701	0.0024468457	-2.1363065e-006	0.0016621031	-1.5079137	0.99588642	-2.0962718e-006	
	
103.686569026683	0.99616747	-5.2467126e-006	0.0016426926	0.00019705713	0.0021844928	-1.8616028	3.8331166e-006	-0.88358283	
	0.0016426926	0.00019705713	0.99590662	-1.4269404e-007	3.8348764e-006	-1.9110795	0.0024468457	-2.5658801e-006	
	0.0021844928	-1.8616028	3.8348764e-006	-1.9110795	0.99582725	-3.7314137	0.0016617498	-1.8618049	
	3.8331166e-006	-0.88358283	0.0024468457	-2.5658801e-006	0.0016617498	-1.8618049	0.99588642	-2.5875372e-006	
	
128.040173557479	0.99616747	-6.1455141e-006	0.0016426926	0.00015755713	0.0021838046	-2.2984243	3.8322789e-006	-1.0907756	
	0.0016426926	0.00015755713	0.99590662	-1.1555908e-007	3.8336678e-006	-2.3384904	0.0024468457	-3.1090294e-006	
	0.0021838046	-2.2984243	3.8336678e-006	-2.3384904	0.9957535	-4.6069836	0.0016612263	-2.298588	
	3.8322789e-006	-1.0907756	0.0024468457	-3.1090294e-006	0.0016612263	-2.298588	0.99588642	-3.1932774e-006	
	
158.113883008419	0.99616746	-7.3153084e-006	0.0016426926	0.00012509969	0.0021827806	-2.8374089	3.8310232e-006	-1.3462639	
	0.0016426926	0.00012509969	0.99590662	-9.3586622e-008	3.8318698e-006	-2.8698543	0.0024468457	-3.7891313e-006	
	0.0021827806	-2.8374089	3.8318698e-006	-2.8698543	0.99566325	-5.6874522	0.0016604473	-2.8375414	
	3.8310232e-006	-1.3462639	0.0024468457	-3.7891313e-006	0.0016604473	-2.8375414	0.99588642	-3.9396076e-006	
	
195.251219249381	0.99616746	-8.8052965e-006	0.0016426926	9.8238016e-005	0.0021812515	-3.5022024	3.8291367e-006	-1.6610959	
	0.0016426926	9.8238016e-005	0.99590662	-7.5795063e-008	3.8291852e-006	-3.5284766	0.0024468457	-4.6349228e-006	
	0.0021812515	-3.5022024	3.8291852e-006	-3.5284766	0.99555311	-7.020283	0.0016592841	-3.5023098	
	3.8291367e-006	-1.6610959	0.0024468457	-4.6349228e-006	0.0016592841	-3.5023098	0.99588642	-4.8581174e-006	
	
241.111266721214	0.99616746	-1.0676452e-005	0.0016426926	7.577805e-005	0.0021789624	-4.3217037	3.8262987e-006	-2.0486596	
	0.0016426926	7.577805e-005	0.99590662	-6.1389556e-008	3.8251667e-006	-4.3429804	0.0024468457	-5.6811392e-006	
	0.0021789624	-4.3217037	3.8251667e-006	-4.3429804	0.99541921	-8.6635074	0.0016575428	-4.3217906	
	3.8262987e-006	-2.0486596	0.0024468457	-5.6811392e-006	0.0016575428	-4.3217906	0.99588641	-5.9865933e-006	
	
297.742790869116	0.99616745	-1.3001952e-005	0.0016426926	5.6727478e-005	0.0021755306	-5.331042	3.822027e-006	-2.5250148	
	0.0016426926	5.6727478e-005	0.99590662	-4.9726516e-008	3.819142e-006	-5.3482719	0.0024468457	-6.968874e-006	
	0.0021755306	-5.331042	3.819142e-006	-5.3482719	0.99525731	-10.687703	0.0016549322	-5.3311124	
	3.822027e-006	-2.5250148	0.0024468457	-6.968874e-006	0.0016549322	-5.3311124	0.99588641	-7.3694386e-006	
	
367.675765301474	0.99616744	-1.5866622e-005	0.0016426926	4.0255579e-005	0.0021703835	-6.5725695	3.8156008e-006	-3.109122	
	0.0016426926	4.0255579e-005	0.99590662	-4.0284844e-008	3.8101062e-006	-6.5865222	0.0024468457	-8.5452397e-006	
	0.0021703835	-6.5725695	3.8101062e-006	-6.5865222	0.99506299	-13.178008	0.0016510168	-6.5726265	
	3.8156008e-006	-3.109122	0.0024468457	-8.5452397e-006	0.0016510168	-6.5726265	0.9958864	-9.0573407e-006	
	
454.034396585779	0.99616742	-1.936313e-005	0.0016426925	2.5663977e-005	0.0021626717	-8.0966964	3.8059524e-006	-3.8227963	
	0.0016426925	2.5663977e-005	0.99590662	-3.2642633e-008	3.7965681e-006	-8.1079953	0.0024468457	-1.0461551e-005	
	0.0021626717	-8.0966964	3.7965681e-006	-8.1079953	0.99483224	-16.235829	0.0016451504	-8.0967426	
	3.8059524e-006	-3.8227963	0.0024468457	-1.0461551e-005	0.0016451504	-8.0967426	0.99588639	-1.1105361e-005	
	
560.676695985069	0.9961674	-2.3583952e-005	0.0016426925	1.2368721e-005	0.0021511502	-9.9622324	3.7915207e-006	-4.6900746	
	0.0016426925	1.2368721e-005	0.99590662	-2.6458274e-008	3.7763422e-006	-9.9713822	0.0024468456	-1.2768699e-005	
	0.0021511502	-9.9622324	3.7763422e-006	-9.9713822	0.9945624	-19.979567	0.001636386	-9.9622698	
	3.7915207e-006	-4.6900746	0.0024468456	-1.2768699e-005	0.001636386	-9.9622698	0.99588638	-1.3568029e-005	
	
692.366833404313	0.99616736	-2.8603311e-005	0.0016426924	-1.0244603e-007	0.0021340287	-12.235621	3.7700723e-006	-5.7354553	
	0.0016426924	-1.0244603e-007	0.99590662	-2.1455134e-008	3.7462853e-006	-12.24303	0.0024468456	-1.550761e-005	
	0.0021340287	-12.235621	3.7462853e-006	-12.24303	0.99425389	-24.54312	0.0016233616	-12.235651	
	3.7700723e-006	-5.7354553	0.0024468456	-1.550761e-005	0.0016233616	-12.235651	0.99588636	-1.6489198e-005	
	
854.987973338349	0.99616731	-3.444554e-005	0.0016426923	-1.2093858e-005	0.0021088067	-14.988049	3.7385146e-006	-6.9801589	
	0.0016426923	-1.2093858e-005	0.99590662	-1.7409084e-008	3.7020081e-006	-14.994049	0.0024468455	-1.8691964e-005	
	0.0021088067	-14.988049	3.7020081e-006	-14.994049	0.9939129	-30.070113	0.0016041752	-14.988073	
	3.7385146e-006	-6.9801589	0.0024468455	-1.8691964e-005	0.0016041752	-14.988073	0.99588633	-1.9883661e-005	
	
1055.80510111804	0.99616723	-4.1033852e-005	0.0016426922	-2.3781723e-005	0.002072148	-18.288955	3.6927818e-006	-8.4352539	
	0.0016426922	-2.3781723e-005	0.99590662	-1.413833e-008	3.6376538e-006	-18.293814	0.0024468454	-2.228046e-005	
	0.002072148	-18.288955	3.6376538e-006	-18.293814	0.99355511	-36.700829	0.0015762888	-18.288975	
	3.6927818e-006	-8.4352539	0.0024468454	-2.228046e-005	0.0015762888	-18.288975	0.99588628	-2.3707627e-005	
	
1303.78958103278	0.99616712	-4.8121535e-005	0.001642692	-3.5111997e-005	0.0020199095	-22.194197	3.6279584e-006	-10.090511	
	0.001642692	-3.5111997e-005	0.99590662	-1.1495084e-008	3.5459491e-006	-22.198132	0.0024468453	-2.6139051e-005	
	0.0020199095	-22.194197	3.5459491e-006	-22.198132	0.99321003	-44.548319	0.0015365508	-22.194213	
	3.6279584e-006	-10.090511	0.0024468453	-2.6139051e-005	0.0015365508	-22.194213	0.99588622	-2.7818528e-005	
	
1610.01994573579	0.99616698	-5.5220257e-005	0.0016426918	-4.5734117e-005	0.0019475177	-26.727859	3.5389022e-006	-11.898957	
	0.0016426918	-4.5734117e-005	0.99590662	-9.35878e-009	3.4188654e-006	-26.731046	0.0024468451	-3.0002667e-005	
	0.0019475177	-26.727859	3.4188654e-006	-26.731046	0.99292375	-53.661548	0.0014814822	-26.727872	
	3.5389022e-006	-11.898957	0.0024468451	-3.0002667e-005	0.0014814822	-26.727872	0.99588614	-3.1934266e-005	
	
1988.17682191763	0.9961668	-6.1576874e-005	0.0016426914	-5.4983285e-005	0.0018509014	-31.859446	3.421631e-006	-13.76032	
	0.0016426914	-5.4983285e-005	0.99590662	-7.630682e-009	3.2492556e-006	-31.862027	0.0024468448	-3.3462069e-005	
	0.0018509014	-31.859446	3.2492556e-006	-31.862027	0.99275639	-63.979089	0.0014079859	-31.859457	
	3.421631e-006	-13.76032	0.0024468448	-3.3462069e-005	0.0014079859	-31.859457	0.99588603	-3.5619226e-005	
	
2455.15410270523	0.99616658	-6.6266349e-005	0.0016426911	-6.1985502e-005	0.0017280019	-37.483573	3.2754325e-006	-15.512239	
	0.0016426911	-6.1985502e-005	0.99590662	-6.2298607e-009	3.0335056e-006	-37.485662	0.0024468445	-3.6014365e-005	
	0.0017280019	-37.483573	3.0335056e-006	-37.485662	0.99276995	-75.287844	0.0013144959	-37.483581	
	3.2754325e-006	-15.512239	0.0024468445	-3.6014365e-005	0.0013144959	-37.483581	0.99588591	-3.8338061e-005	
	
3031.81367048453	0.99616633	-6.8440612e-005	0.0016426906	-6.5927836e-005	0.0015803953	-43.414731	3.1049311e-006	-16.942883	
	0.0016426906	-6.5927836e-005	0.99590662	-5.0904761e-009	2.7743824e-006	-43.416423	0.0024468442	-3.7198694e-005	
	0.0015803953	-43.414731	2.7743824e-006	-43.416423	0.99300654	-87.212474	0.0012022111	-43.414738	
	3.1049311e-006	-16.942883	0.0024468442	-3.7198694e-005	0.0012022111	-43.414738	0.99588576	-3.9600164e-005	
	
3743.91738685922	0.99616608	-6.7655465e-005	0.0016426902	-6.6410258e-005	0.0014140476	-49.408493	2.9206429e-006	-17.834847	
	0.0016426902	-6.6410258e-005	0.99590662	-4.1599588e-009	2.4823591e-006	-49.409863	0.0024468439	-3.6773782e-005	
	0.0014140476	-49.408493	2.4823591e-006	-49.409863	0.99346703	-99.25871	0.00107567	-49.408499	
	2.9206429e-006	-17.834847	0.0024468439	-3.6773782e-005	0.00107567	-49.408499	0.99588562	-3.9148703e-005	
	
4623.27798574331	0.99616585	-6.4073694e-005	0.0016426898	-6.3664634e-005	0.0012383685	-55.207542	2.7368985e-006	-18.031903	
	0.0016426898	-6.3664634e-005	0.99590662	-3.3973471e-009	2.1739547e-006	-55.208652	0.0024468436	-3.4827914e-005	
	0.0012383685	-55.207542	2.1739547e-006	-55.208652	0.99410531	-110.9071	0.00094203041	-55.207546	
	2.7368985e-006	-18.031903	0.0024468436	-3.4827914e-005	0.00094203041	-55.207546	0.99588548	-3.7077715e-005	
	
5709.18028492878	0.99616565	-5.8386884e-005	0.0016426894	-5.8475142e-005	0.0010638051	-60.593669	2.5677574e-006	-17.497374	
	0.0016426894	-5.8475142e-005	0.99590662	-2.771198e-009	1.8675087e-006	-60.594568	0.0024468433	-3.1737399e-005	
	0.0010638051	-60.593669	1.8675087e-006	-60.594568	0.99484477	-121.7185	0.00080923949	-60.593673	
	2.5677574e-006	-17.497374	0.0024468433	-3.1737399e-005	0.00080923949	-60.593673	0.99588537	-3.3787888e-005	
	
7050.13620775802	0.99616549	-5.1521754e-005	0.0016426891	-5.1867215e-005	0.00089927894	-65.422247	2.4231545e-006	-16.328929	
	0.0016426891	-5.1867215e-005	0.99590662	-2.2571796e-009	1.5786833e-006	-65.422975	0.0024468431	-2.8006388e-005	
	0.00089927894	-65.422247	1.5786833e-006	-65.422975	0.99560571	-131.40339	0.00068408402	-65.42225	
	2.4231545e-006	-16.328929	0.0024468431	-2.8006388e-005	0.00068408402	-65.42225	0.99588527	-2.9816015e-005	
	
8706.05201926298	0.99616536	-4.433615e-005	0.0016426889	-4.478454e-005	0.00075070307	-69.628789	2.3072421e-006	-14.720076	
	0.0016426889	-4.478454e-005	0.99590662	-1.8359146e-009	1.3178585e-006	-69.629378	0.0024468429	-2.4100531e-005	
	0.00075070307	-69.628789	1.3178585e-006	-69.629378	0.99632661	-139.83431	0.00057106193	-69.628791	
	2.3072421e-006	-14.720076	0.0024468429	-2.4100531e-005	0.00057106193	-69.628791	0.9958852	-2.5657888e-005	
	
10750.904596525	0.99616527	-3.7446506e-005	0.0016426888	-3.7908976e-005	0.00062084372	-73.214126	2.2191337e-006	-12.89303	
	0.0016426888	-3.7908976e-005	0.99590662	-1.4914742e-009	1.0898905e-006	-73.214603	0.0024468428	-2.0355294e-005	
	0.00062084372	-73.214126	1.0898905e-006	-73.214603	0.99697141	-147.01524	0.00047227756	-73.214128	
	2.2191337e-006	-12.89303	0.0024468428	-2.0355294e-005	0.00047227756	-73.214128	0.99588515	-2.1670697e-005	
