# MHz S MA R 50

1	0.77104825	-38.075252	0.60814885	50.405125	0.0042702878	50.395433	0.0044872141	50.4014	
	0.60814885	50.405125	0.74963969	-38.089905	0.011288993	-16.729872	0.01192146	-16.63772	
	0.0042702878	50.395433	0.011288993	-16.729872	0.05881225	-0.086327353	0.92765157	-0.017782063	
	0.0044872141	50.4014	0.01192146	-16.63772	0.92765157	-0.017782063	0.058063312	-0.050643268	
	
1.23487713750591	0.7002113	-43.732906	0.68183885	44.390877	0.004787721	44.378909	0.005030935	44.386278	
	0.68183885	44.390877	0.68076045	-43.750972	0.010648137	-18.101778	0.011247599	-17.995671	
	0.004787721	44.378909	0.010648137	-18.101778	0.058807841	-0.10179094	0.92764566	-0.021637713	
	0.005030935	44.386278	0.011247599	-17.995671	0.92764566	-0.021637713	0.058058464	-0.057153881	
	
1.52492154473479	0.62206908	-49.281867	0.7477621	38.401846	0.005250617	38.387067	0.0055173496	38.396166	
	0.7477621	38.401846	0.60477669	-49.304124	0.0099722035	-18.856667	0.01053706	-18.737698	
	0.005250617	38.387067	0.0099722035	-18.856667	0.05880357	-0.11980596	0.92763959	-0.026326977	
	0.0055173496	38.396166	0.01053706	-18.737698	0.92763959	-0.026326977	0.058053783	-0.063984943	
	
1.88309075208318	0.5412776	-54.451072	0.80304117	32.689732	0.0056387709	32.671482	0.0059252267	32.682719	
	0.80304117	32.689732	0.52621502	-54.47846	0.0093148493	-18.860991	0.009846299	-18.731766	
	0.0056387709	32.671482	0.0093148493	-18.860991	0.058799851	-0.1413243	0.92763375	-0.032069197	
	0.0059252267	32.682719	0.009846299	-18.731766	0.92763375	-0.032069197	0.058049735	-0.07160653	
	
2.32538571759633	0.46254818	-59.019602	0.84673408	27.451761	0.0059455681	27.429224	0.006247616	27.4431	
	0.84673408	27.451761	0.44965577	-59.053242	0.0087238578	-18.115562	0.0092255275	-17.979964	
	0.0059455681	27.429224	0.0087238578	-18.115562	0.058796971	-0.16764108	0.92762833	-0.039143206	
	0.006247616	27.4431	0.0092255275	-17.979964	0.92762833	-0.039143206	0.058046646	-0.080733268	
	
2.87156565854248	0.38958176	-62.841359	0.87958474	22.805168	0.0061762319	22.777338	0.0064900066	22.794473	
	0.87958474	22.805168	0.37869679	-62.882567	0.0082291192	-16.755369	0.0087060846	-16.617748	
	0.0061762319	22.777338	0.0082291192	-16.755369	0.058795048	-0.20033262	0.92762338	-0.047891788	
	0.0064900066	22.794473	0.0087060846	-16.617748	0.92762338	-0.047891788	0.058044668	-0.092222102	
	
3.54603078058121	0.32460395	-65.842001	0.90332448	18.789409	0.0063429191	18.755041	0.0066651732	18.776201	
	0.90332448	18.789409	0.31550137	-65.892269	0.0078395422	-14.998218	0.0082972284	-14.862285	
	0.0063429191	18.755041	0.0078395422	-14.998218	0.058794067	-0.24122321	0.92761875	-0.058730103	
	0.0066651732	18.776201	0.0082972284	-14.862285	0.92761875	-0.058730103	0.058043809	-0.10699481	
	
4.37891233983196	0.26847076	-67.998754	0.91997725	15.385556	0.0064598409	15.343117	0.0067880495	15.369246	
	0.91997725	15.385556	0.26090107	-68.059682	0.007547683	-13.073833	0.007991045	-12.941765	
	0.0064598409	15.343117	0.007547683	-13.073833	0.058793945	-0.29241699	0.92761421	-0.072160938	
	0.0067880495	15.369246	0.007991045	-12.941765	0.92761421	-0.072160938	0.058044023	-0.1260238	
	
5.407418735601	0.22105744	-69.31662	0.93141057	12.539665	0.0065401099	12.487258	0.0068724153	12.519524	
	0.93141057	12.539665	0.21477373	-69.389742	0.0073373298	-11.169632	0.0077704438	-11.041703	
	0.0065401099	12.487258	0.0073373298	-11.169632	0.058794585	-0.35638835	0.92760948	-0.088796952	
	0.0068724153	12.519524	0.0077704438	-11.041703	0.92760948	-0.088796952	0.058045268	-0.15037184	
	
6.67749776951478	0.18167279	-69.809539	0.93914304	10.181994	0.0065943884	10.117278	0.0069294758	10.157121	
	0.93914304	10.181994	0.17644637	-69.89595	0.0071900287	-9.4089948	0.0076160146	-9.2836973	
	0.0065943884	10.117278	0.0071900287	-9.4089948	0.058795909	-0.43611071	0.92760426	-0.10938929	
	0.0069294758	10.157121	0.0076160146	-9.2836973	0.92760426	-0.10938929	0.058047557	-0.18126039	
	
8.2458893313205	0.14937629	-69.489658	0.94431858	8.239754	0.0066307076	8.1598388	0.0069676719	8.2090388	
	0.94431858	8.239754	0.1450035	-69.589305	0.0070889962	-7.8557739	0.0075101264	-7.73018	
	0.0066307076	8.1598388	0.0070889962	-7.8557739	0.058797862	-0.5352113	0.92759826	-0.13486263	
	0.0069676719	8.2090388	0.0075101264	-7.73018	0.92759826	-0.13486263	0.058050985	-0.22014932	
	
10.1826602136516	0.12317796	-68.365181	0.9477581	6.6442325	0.0066548298	6.5455478	0.0069930611	6.6063021	
	0.9477581	6.6442325	0.11948168	-68.475591	0.007020693	-6.5306442	0.007438569	-6.4007461	
	0.0066548298	6.5455478	0.007020693	-6.5306442	0.058800413	-0.6581507	0.92759116	-0.16635774	
	0.0069930611	6.6063021	0.007438569	-6.4007461	0.92759116	-0.16635774	0.05805575	-0.26882247	
	
12.5743342968294	0.10214525	-66.446746	0.95003253	5.3340213	0.0066707613	5.2121591	0.0070098569	5.2871803	
	0.95003253	5.3340213	0.098973596	-66.560939	0.0069749656	-5.4282422	0.0073906924	-5.2891634	
	0.0066707613	5.2121591	0.0069749656	-5.4282422	0.058803535	-0.8104337	0.9275826	-0.20528321	
	0.0070098569	5.2871803	0.0073906924	-5.2891634	0.9275826	-0.20528321	0.058062181	-0.32948135	
	
15.527757942511	0.085448251	-63.762374	0.95153092	4.2559315	0.0066812301	4.1054486	0.0070209306	4.1980864	
	0.95153092	4.2559315	0.082672339	-63.865786	0.0069445447	-4.5302775	0.0073588765	-4.3763265	
	0.0066812301	4.1054486	0.0069445447	-4.5302775	0.058807182	-0.99886217	0.92757219	-0.25337901	
	0.0070209306	4.1980864	0.0073588765	-4.3763265	0.92757219	-0.25337901	0.058070776	-0.40485221	
	
19.1748732799326	0.072368444	-60.379886	0.95251479	3.3646747	0.0066880671	3.1788495	0.0070282133	3.2932394	
	0.95251479	3.3646747	0.069880332	-60.446459	0.0069243799	-3.8139717	0.0073378307	-3.6385601	
	0.0066880671	3.1788495	0.0069243799	-3.8139717	0.058811262	-1.2318427	0.92755945	-0.3127945	
	0.0070282133	3.2932394	0.0073378307	-3.6385601	0.92755945	-0.3127945	0.058082266	-0.4983129	
	
23.6786126279617	0.062288236	-56.431806	0.95315834	2.6219736	0.0066924877	2.3925063	0.0070329925	2.533754	
	0.95315834	2.6219736	0.05999939	-56.42015	0.0069110295	-3.2568618	0.0073239534	-3.0523133	
	0.0066924877	2.3925063	0.0069110295	-3.2568618	0.05881558	-1.5197653	0.92754383	-0.38618475	
	0.0070329925	2.533754	0.0073239534	-3.0523133	0.92754383	-0.38618475	0.05809771	-0.6140465	
	
29.2401773821287	0.054673144	-52.131945	0.95357686	1.9954704	0.0066952897	1.712112	0.0070361213	1.8865209	
	0.95357686	1.9954704	0.052513292	-51.98328	0.0069021766	-2.8392439	0.007314825	-2.5965099	
	0.0066952897	1.712112	0.0069021766	-2.8392439	0.058819765	-1.8754709	0.92752466	-0.47682937	
	0.0070361213	1.8865209	0.007314825	-2.5965099	0.92752466	-0.47682937	0.058118644	-0.75722902	
	
36.1080265458081	0.049055677	-47.769905	0.95384619	1.4576144	0.0066969887	1.107709	0.0070381635	1.3230606	
	0.95384619	1.4576144	0.046971355	-47.409406	0.0068962716	-2.545257	0.0073088341	-2.2535468	
	0.0066969887	1.107709	0.0068962716	-2.545257	0.058823152	-2.3148346	0.92750113	-0.58877939	
	0.0070381635	1.3230606	0.0073088341	-2.2535468	0.92750113	-0.58877939	0.0581473	-0.93425937	
	
44.5889764618748	0.045026933	-43.677208	0.95401594	0.98460996	0.0066979076	0.55252958	0.0070394905	0.81842908	
	0.95401594	0.98460996	0.042978973	-43.018653	0.0068922801	-2.3632678	0.0073049143	-2.0095853	
	0.0066979076	0.55252958	0.0068922801	-2.3632678	0.058824598	-2.8574951	0.92747226	-0.72703877	
	0.0070394905	0.81842908	0.0073049143	-2.0095853	0.92747226	-0.72703877	0.05818694	-1.1530409	
	
55.0619076175583	0.042237305	-40.176218	0.95411817	0.55544937	0.0066982339	0.021894703	0.0070403472	0.35019818	
	0.95411817	0.55544937	0.040197024	-39.127345	0.0068895084	-2.285949	0.0073023641	-1.8545248	
	0.0066982339	0.021894703	0.0068895084	-2.285949	0.058822195	-3.5277778	0.92743689	-0.89778888	
	0.0070403472	0.35019818	0.0073023641	-1.8545248	0.92743689	-0.89778888	0.058242363	-1.4233241	
	
67.9946908643852	0.040402593	-37.535649	0.95417324	0.15102471	0.0066980539	-0.50783837	0.0070408956	-0.10249806	
	0.95417324	0.15102471	0.038347087	-36.000925	0.0068874843	-2.3102766	0.0073007256	-1.7818724	
	0.0066980539	-0.50783837	0.0068874843	-2.3102766	0.058812839	-4.355879	0.92739363	-1.1086664	
	0.0070408956	-0.10249806	0.0073007256	-1.7818724	0.92739363	-1.1086664	0.058320661	-1.7571202	
	
83.9650892202111	0.039309962	-35.950628	0.95419344	-0.24669898	0.0066973694	-1.0603082	0.0070412439	-0.55987256	
	0.95419344	-0.24669898	0.037217173	-33.83001	0.0068858747	-2.4375705	0.0072997034	-1.7886293	
	0.0066973694	-1.0603082	0.0068858747	-2.4375705	0.058791554	-5.3794158	0.92734082	-1.3691076	
	0.0070412439	-0.55987256	0.0072997034	-1.7886293	0.92734082	-1.3691076	0.058432372	-2.169193	
	
103.686569026683	0.038820532	-35.546987	0.95418534	-0.65547601	0.006696099	-1.6601965	0.0070414667	-1.0423815	
	0.95418534	-0.65547601	0.036664443	-32.731817	0.0068844285	-2.6736491	0.0072991126	-1.8752564	
	0.006696099	-1.6601965	0.0068844285	-2.6736491	0.058750484	-6.6455124	0.92727654	-1.6907761	
	0.0070414667	-1.0423815	0.0072991126	-1.8752564	0.92727654	-1.6907761	0.058593222	-2.6776305	
	
128.040173557479	0.038869077	-36.396309	0.9541511	-1.0935676	0.0066940653	-2.334335	0.007041618	-1.5716444	
	0.9541511	-1.0935676	0.036614968	-32.764558	0.0068829325	-3.0291445	0.0072988455	-2.0457567	
	0.0066940653	-2.334335	0.0068829325	-3.0291445	0.058677376	-8.2137133	0.92719853	-2.0880942	
	0.007041618	-1.5716444	0.0072988455	-2.0457567	0.92719853	-2.0880942	0.05882676	-3.3044817	
	
158.113883008419	0.03946319	-38.527425	0.95408899	-1.5805576	0.0066909654	-3.1129234	0.0070417421	-2.171431	
	0.95408899	-1.5805576	0.037062702	-33.93994	0.0068811754	-3.5200132	0.0072988522	-2.3079056	
	0.0066909654	-3.1129234	0.0068811754	-3.5200132	0.058553371	-10.160239	0.92710421	-2.5789083	
	0.0070417421	-2.171431	0.0072988522	-2.3079056	0.92710421	-2.5789083	0.059168351	-4.0764179	
	
195.251219249381	0.040683709	-41.926638	0.95399328	-2.1382324	0.0066863184	-4.0309214	0.0070418814	-2.8687672	
	0.95399328	-2.1382324	0.038069659	-36.22477	0.0068789121	-4.1682817	0.007299131	-2.6736568	
	0.0066863184	-4.0309214	0.0068789121	-4.1682817	0.058349888	-12.584522	0.92699066	-3.1853233	
	0.0070418814	-2.8687672	0.007299131	-2.6736568	0.92699066	-3.1853233	0.059671243	-5.0253234	
	
241.111266721214	0.042686347	-46.527565	0.95385342	-2.7915669	0.006679382	-5.1296975	0.0070420834	-3.6952249	
	0.95385342	-2.7915669	0.039767607	-39.530811	0.0068758217	-5.0030722	0.0072997262	-3.1597659	
	0.006679382	-5.1296975	0.0068758217	-5.0030722	0.058024552	-15.619804	0.92685456	-3.9347611	
	0.0070420834	-3.6952249	0.0072997262	-3.1597659	0.92685456	-3.9347611	0.060415737	-6.1886383	
	
297.742790869116	0.045702781	-52.199915	0.95365234	-3.5698656	0.0066690215	-6.4590454	0.0070424082	-4.6884862	
	0.95365234	-3.5698656	0.042359879	-43.700302	0.0068714514	-6.0619723	0.0073007342	-3.7886944	
	0.0066690215	-6.4590454	0.0068714514	-6.0619723	0.057516698	-19.451196	0.92669202	-4.8613161	
	0.0070424082	-4.6884862	0.0073007342	-3.7886944	0.92669202	-4.8613161	0.061523087	-7.6091631	
	
367.675765301474	0.050039503	-58.752314	0.95336366	-4.5081197	0.0066535087	-8.0797317	0.0070429332	-5.8943095	
	0.95336366	-4.5081197	0.046121416	-48.501347	0.0068651354	-7.3928364	0.0073023129	-4.5898948	
	0.0066535087	-8.0797317	0.0068651354	-7.3928364	0.056744923	-24.34792	0.92649808	-6.0075223	
	0.0070429332	-5.8943095	0.0073023129	-4.5898948	0.92649808	-6.0075223	0.063176511	-9.333938	
	
454.034396585779	0.056075562	-65.961273	0.95294694	-5.6486602	0.0066302122	-10.066827	0.0070437544	-7.3690922	
	0.95294694	-5.6486602	0.05139716	-53.647391	0.00685587	-9.0561448	0.0073046964	-5.6016408	
	0.0066302122	-10.066827	0.00685587	-9.0561448	0.055614916	-30.722851	0.92626517	-7.4267045	
	0.0070437544	-7.3690922	0.0073046964	-5.6016408	0.92626517	-7.4267045	0.065652878	-11.411891	
	
560.676695985069	0.064264767	-73.623111	0.95234025	-7.0432155	0.0065951214	-12.514233	0.0070449717	-9.1833399	
	0.95234025	-7.0432155	0.058603032	-58.842618	0.0068421163	-11.128104	0.0073082027	-6.87368	
	0.0065951214	-12.514233	0.0068421163	-11.128104	0.054062561	-39.243243	0.92597921	-9.1861925	
	0.0070449717	-9.1833399	0.0073082027	-6.87368	0.92597921	-9.1861925	0.0693704	-13.890579	
	
692.366833404313	0.075151049	-81.608257	0.95144775	-8.7555263	0.0065421156	-15.5411	0.007046632	-11.42654	
	0.95144775	-8.7555263	0.068237289	-63.836715	0.006821478	-13.704747	0.0073132141	-8.4711737	
	0.0065421156	-15.5411	0.006821478	-13.704747	0.052205186	-51.020286	0.92560951	-11.371848	
	0.007046632	-11.42654	0.0073132141	-8.4711737	0.92560951	-11.371848	0.07496017	-16.814034	
	
854.987973338349	0.089405259	-89.895015	0.95011921	-10.864742	0.0064618394	-19.301372	0.0070485648	-14.214247	
	0.95011921	-10.864742	0.080910525	-68.465174	0.0067901599	-16.907376	0.0073200701	-10.480695	
	0.0064618394	-19.301372	0.0067901599	-16.907376	0.050794932	-67.79681	0.92508445	-14.094632	
	0.0070485648	-14.214247	0.0073200701	-10.480695	0.92508445	-14.094632	0.083372927	-20.226664	
	
1055.80510111804	0.10789015	-98.574748	0.94811455	-13.469916	0.0063399846	-23.998669	0.0070499545	-17.698645	
	0.94811455	-13.469916	0.097400741	-72.663443	0.0067420353	-20.8897	0.0073287247	-13.019516	
	0.0063399846	-23.998669	0.0067420353	-20.8897	0.052307461	-91.350242	0.924233	-17.500348	
	0.0070499545	-17.698645	0.0073287247	-13.019516	0.924233	-17.500348	0.096036387	-24.190526	
	
1303.78958103278	0.13176094	-107.83642	0.94504107	-16.696039	0.0061547156	-29.910668	0.0070482872	-22.084335	
	0.94504107	-16.696039	0.11873921	-76.461558	0.0066670035	-25.846594	0.0073378137	-16.249944	
	0.0061547156	-29.910668	0.0066670035	-25.846594	0.062217184	-120.27011	0.92264823	-21.784093	
	0.0070482872	-22.084335	0.0073378137	-16.249944	0.92264823	-21.784093	0.11507872	-28.820957	
	
1610.01994573579	0.16261	-117.94296	0.94023921	-20.702065	0.0058730568	-37.431152	0.0070368706	-27.650975	
	0.94023921	-20.702065	0.14633246	-79.974765	0.0065481118	-32.022419	0.0073423194	-20.400418	
	0.0058730568	-37.431152	0.0065481118	-32.022419	0.087722793	-148.31685	0.91937556	-27.210767	
	0.0070368706	-27.650975	0.0073423194	-20.400418	0.91937556	-27.210767	0.14361395	-34.335325	
	
1988.17682191763	0.20265437	-129.20705	0.93257202	-25.69102	0.0054468091	-47.147868	0.0069992982	-34.780962	
	0.93257202	-25.69102	0.18211611	-83.402848	0.0063568046	-39.709681	0.0073281261	-25.791908	
	0.0054468091	-47.147868	0.0063568046	-39.709681	0.13519039	-171.76988	0.91223297	-34.139538	
	0.0069992982	-34.780962	0.0073281261	-25.791908	0.91223297	-34.139538	0.1859917	-41.096294	
	
2455.15410270523	0.2549118	-141.96673	0.92004491	-31.9203	0.0048119484	-60.007389	0.0068983386	-43.975168	
	0.92004491	-31.9203	0.22868942	-87.04196	0.0060467331	-49.206647	0.0072606414	-32.853614	
	0.0048119484	-60.007389	0.0060467331	-49.206647	0.21109437	168.10891	0.8964766	-43.035451	
	0.0068983386	-43.975168	0.0072606414	-32.853614	0.8964766	-43.035451	0.2476014	-49.619697	
	
3031.81367048453	0.32314635	-156.55468	0.89917498	-39.703904	0.0039071791	-77.77316	0.0066590391	-55.793187	
	0.89917498	-39.703904	0.2892368	-91.299146	0.0055527715	-60.647769	0.0070664147	-42.066736	
	0.0039071791	-77.77316	0.0055527715	-60.647769	0.32170364	148.98637	0.86284156	-54.406962	
	0.0066590391	-55.793187	0.0070664147	-42.066736	0.86284156	-54.406962	0.33304687	-60.489395	
	
3743.91738685922	0.41098987	-173.24326	0.86418893	-49.381826	0.0027605401	-104.85917	0.0061633727	-70.56976	
	0.86418893	-49.381826	0.36672236	-96.676218	0.0048200566	-73.555656	0.0066237272	-53.692098	
	0.0027605401	-104.85917	0.0048200566	-73.555656	0.46648602	129.30355	0.79715506	-68.52953	
	0.0061633727	-70.56976	0.0066237272	-53.692098	0.79715506	-68.52953	0.44072124	-74.055187	
	
4623.27798574331	0.51919937	167.87587	0.80685363	-61.20304	0.0017899417	-154.93906	0.0053127576	-87.804103	
	0.80685363	-61.20304	0.461476	-103.65548	0.0038956154	-86.217883	0.0058197363	-67.181189	
	0.0017899417	-154.93906	0.0038956154	-86.217883	0.62709919	108.83052	0.68825886	-84.871674	
	0.0053127576	-87.804103	0.0058197363	-67.181189	0.68825886	-84.871674	0.55521928	-89.842903	
	
5709.18028492878	0.64081841	147.12386	0.71927993	-75.065922	0.002058932	138.34457	0.004173909	-105.72722	
	0.71927993	-75.065922	0.56703812	-112.41891	0.0029943063	-96.314753	0.0046993219	-80.762864	
	0.002058932	138.34457	0.0029943063	-96.314753	0.76888021	88.804815	0.54530539	-101.74547	
	0.004173909	-105.72722	0.0046993219	-80.762864	0.54530539	-101.74547	0.65055708	-106.20075	
	
7050.13620775802	0.75862546	125.48548	0.60169345	-90.214953	0.0032209358	101.22087	0.0030025154	-122.04182	
	0.60169345	-90.214953	0.66816052	-122.50036	0.0023077147	-104.12125	0.0035060133	-92.154397	
	0.0032209358	101.22087	0.0023077147	-104.12125	0.86713228	70.983914	0.39914775	-117.11544	
	0.0030025154	-122.04182	0.0035060133	-92.154397	0.39914775	-117.11544	0.71096055	-121.11141	
	
8706.05201926298	0.85295045	104.49723	0.46891177	-105.29848	0.0044647095	79.868999	0.0020325758	-135.29859	
	0.46891177	-105.29848	0.74788239	-132.79317	0.001795087	-112.44873	0.0024829602	-99.83672	
	0.0044647095	79.868999	0.001795087	-112.44873	0.9236352	56.308906	0.27678719	-129.85954	
	0.0020325758	-135.29859	0.0024829602	-99.83672	0.27678719	-129.85954	0.7409652	-133.45855	
	
10750.904596525	0.91534698	85.585541	0.34335512	-118.99897	0.0055478036	64.306337	0.0013348583	-145.33009	
	0.34335512	-118.99897	0.79938145	-142.14741	0.0013594711	-121.96492	0.0017219955	-103.43131	
	0.0055478036	64.306337	0.0013594711	-121.96492	0.95305385	44.70076	0.18632995	-139.93287	
	0.0013348583	-145.33009	0.0017219955	-103.43131	0.18632995	-139.93287	0.75309614	-143.19559	
	
13276.0462937559	0.95088089	69.472021	0.24045492	-130.62586	0.0063887376	51.922312	0.00086790569	-152.72966	
	0.24045492	-130.62586	0.82759202	-149.95703	0.00098725418	-131.45076	0.0011983368	-103.28628	
	0.0063887376	51.922312	0.00098725418	-131.45076	0.96804033	35.624088	0.12365685	-147.78221	
	0.00086790569	-152.72966	0.0011983368	-103.28628	0.12365685	-147.78221	0.75692345	-150.76389	
	
16394.2860446292	0.96935694	56.184838	0.1637984	-140.1224	0.0069933587	41.918939	0.00056389742	-158.22806	
	0.1637984	-140.1224	0.84132943	-156.18163	0.00069210062	-139.9602	0.00085043632	-100.0099	
	0.0069933587	41.918939	0.00069210062	-139.9602	0.975948	28.510123	0.081537325	-153.91075	
	0.00056389742	-158.22806	0.00085043632	-100.0099	0.081537325	-153.91075	0.75748908	-156.65972	
	
20244.9290222448	0.97863505	45.394547	0.10981554	-147.75354	0.0074096917	33.848711	0.00036714682	-162.39923	
	0.10981554	-147.75354	0.84750175	-161.05745	0.00047360965	-147.18632	0.00062204271	-94.243926	
	0.0074096917	33.848711	0.00047360965	-147.18632	0.98043706	22.89665	0.053612606	-158.73088	
	0.00036714682	-162.39923	0.00062204271	-94.243926	0.053612606	-158.73088	0.75700751	-161.2884	
	
25000	0.98336057	36.68099	0.072965554	-153.85935	0.0076904898	27.347195	0.00023959636	-165.62944	
	0.072965554	-153.85935	0.85011348	-164.87172	0.00031913322	-153.16677	0.00047229325	-86.624874	
	0.0076904898	27.347195	0.00031913322	-153.16677	0.98322709	18.436502	0.035207827	-162.55117	
	0.00023959636	-165.62944	0.00047229325	-86.624874	0.035207827	-162.55117	0.75633558	-164.95185	
	
